Time Stamp,ID,Extended,Dir,Bus,LEN,D1,D2,D3,D4,D5,D6,D7,D8
895011,00001000,true,Rx,0,8,00,00,02,EB,00,01,09,1A,
896289,00001001,true,Rx,0,8,00,00,00,00,00,00,00,00,
1895021,00001000,true,Rx,0,8,00,00,02,EC,00,01,09,1A,
1896280,00001001,true,Rx,0,8,00,00,00,00,00,00,00,00,
2895042,00001000,true,Rx,0,8,00,00,02,ED,00,01,09,1A,
2896480,00001001,true,Rx,0,8,00,00,00,00,00,00,00,00,
3895114,00001000,true,Rx,0,8,00,00,02,EE,00,01,09,1A,
3896390,00001001,true,Rx,0,8,00,00,00,00,00,00,00,00,
4895214,00001000,true,Rx,0,8,00,00,02,EF,00,01,09,1A,
4896642,00001001,true,Rx,0,8,00,00,00,00,00,00,00,00,
5895179,00001000,true,Rx,0,8,00,00,02,F0,00,01,09,1A,
5896576,00001001,true,Rx,0,8,00,00,00,00,00,00,00,00,
6291224,00000320,false,Rx,0,8,02,02,00,01,00,00,00,00,
6292658,000001A0,false,Rx,0,8,00,43,00,00,FE,FE,00,90,
6292909,000004A0,false,Rx,0,8,00,00,00,00,00,00,00,00,
6293159,000005A0,false,Rx,0,8,64,01,00,34,48,00,00,30,
6301196,000001A0,false,Rx,0,8,00,43,00,00,FE,FE,00,91,
6306702,000001A0,false,Rx,0,8,00,43,00,00,FE,FE,00,92,
6306973,000004A0,false,Rx,0,8,00,00,00,00,00,00,00,00,
6307154,000005A0,false,Rx,0,8,64,01,00,E2,55,00,00,30,
6313700,000001A0,false,Rx,0,8,00,43,00,00,FE,FE,00,93,
6315312,00000320,false,Rx,0,8,02,02,00,01,00,00,00,00,
6321216,000001A0,false,Rx,0,8,00,43,00,00,FE,FE,00,94,
6321239,000004A0,false,Rx,0,8,00,00,00,00,00,00,00,00,
6321255,000005A0,false,Rx,0,8,64,01,00,90,63,00,00,30,
6327752,000001A0,false,Rx,0,8,00,43,00,00,FE,FE,00,95,
6334674,000001A0,false,Rx,0,8,00,43,00,00,FE,FE,00,96,
6334926,000004A0,false,Rx,0,8,00,00,00,00,00,00,00,00,
6335178,000005A0,false,Rx,0,8,64,01,00,3E,71,00,00,30,
6341574,00000570,false,Rx,0,4,00,00,EB,00,00,00,00,00,
6341758,000001A0,false,Rx,0,8,00,43,00,00,FE,FE,00,97,
6342775,00000320,false,Rx,0,8,02,02,00,01,00,00,00,00,
6348747,000001A0,false,Rx,0,8,00,43,00,00,FE,FE,00,98,
6348999,000004A0,false,Rx,0,8,00,00,00,00,00,00,00,00,
6349248,000005A0,false,Rx,0,8,64,01,00,EC,7E,00,00,30,
6355718,000001A0,false,Rx,0,8,00,43,00,00,FE,FE,00,99,
6362777,000001A0,false,Rx,0,8,00,43,00,00,FE,FE,00,9A,
6363022,000004A0,false,Rx,0,8,00,00,00,00,00,00,00,00,
6363225,000005A0,false,Rx,0,8,64,01,00,9A,8C,00,00,30,
6368740,00000320,false,Rx,0,8,02,02,00,01,00,00,00,00,
6369014,000005D8,false,Rx,0,8,15,04,00,03,01,00,00,00,
6369340,000005D0,false,Rx,0,6,94,47,51,30,24,41,00,00,
6369744,000001A0,false,Rx,0,8,00,43,00,00,FE,FE,00,9B,
6376737,000001A0,false,Rx,0,8,00,43,00,00,FE,FE,00,9C,
6376988,000004A0,false,Rx,0,8,00,00,00,00,00,00,00,00,
6377237,000005A0,false,Rx,0,8,64,01,00,48,9A,00,00,30,
6383799,000001A0,false,Rx,0,8,00,43,00,00,FE,FE,00,9D,
6390747,000001A0,false,Rx,0,8,00,43,00,00,FE,FE,00,9E,
6390999,000004A0,false,Rx,0,8,00,00,00,00,00,00,00,00,
6391249,000005A0,false,Rx,0,8,64,01,00,F6,A7,00,00,30,
6392870,00000320,false,Rx,0,8,02,06,00,01,00,00,00,00,
6397745,000001A0,false,Rx,0,8,00,43,00,00,FE,FE,00,9F,
6404761,000001A0,false,Rx,0,8,00,43,00,00,FE,FE,00,90,
6404960,000004A0,false,Rx,0,8,00,00,00,00,00,00,00,00,
6405211,000005A0,false,Rx,0,8,64,01,00,A4,B5,00,00,30,
6411752,000001A0,false,Rx,0,8,00,43,00,00,FE,FE,00,91,
6415718,00000320,false,Rx,0,8,02,06,00,01,00,00,00,00,
6416047,00000420,false,Rx,0,8,06,78,78,44,00,00,FF,00,
6418799,000001A0,false,Rx,0,8,00,43,00,00,FE,FE,00,92,
6419052,000004A0,false,Rx,0,8,00,00,00,00,00,00,00,00,
6419303,000005A0,false,Rx,0,8,64,01,00,52,C3,00,00,30,
6425805,000001A0,false,Rx,0,8,00,43,00,00,FE,FE,00,93,
6432776,000001A0,false,Rx,0,8,00,43,00,00,FE,FE,00,94,
6432973,000004A0,false,Rx,0,8,00,00,00,00,00,00,00,00,
6433259,000005A0,false,Rx,0,8,64,01,00,00,D1,00,00,30,
6439730,000001A0,false,Rx,0,8,00,43,00,00,FE,FE,00,95,
6441455,00000570,false,Rx,0,4,07,00,EB,00,00,00,00,00,
6442071,00000320,false,Rx,0,8,02,06,00,01,00,00,00,00,
6446820,000001A0,false,Rx,0,8,00,43,00,00,FE,FE,00,96,
6447089,000004A0,false,Rx,0,8,00,00,00,00,00,00,00,00,
6447265,000005A0,false,Rx,0,8,64,01,00,AE,DE,00,00,30,
6453804,000001A0,false,Rx,0,8,00,43,00,00,FE,FE,00,97,
6461374,000001A0,false,Rx,0,8,00,43,00,00,FE,FE,00,98,
6461397,000004A0,false,Rx,0,8,00,00,00,00,00,00,00,00,
6461413,000005A0,false,Rx,0,8,64,01,00,5C,EC,00,00,30,
6467411,00000320,false,Rx,0,8,02,06,00,01,00,00,00,00,
6467694,000005D8,false,Rx,0,8,15,04,00,03,01,00,00,00,
6467940,000001A0,false,Rx,0,8,00,43,00,00,FE,FE,00,99,
6468118,000005D0,false,Rx,0,6,80,47,51,30,24,41,00,00,
6468523,00000520,false,Rx,0,8,02,04,00,42,00,75,34,04,
6474859,000001A0,false,Rx,0,8,00,43,00,00,FE,FE,00,9A,
6475115,000004A0,false,Rx,0,8,00,00,00,00,00,00,00,00,
6475367,000005A0,false,Rx,0,8,64,01,00,0A,FA,00,00,30,
6481855,000001A0,false,Rx,0,8,00,43,00,00,FE,FE,00,9B,
6488856,000001A0,false,Rx,0,8,00,43,00,00,FE,FE,00,9C,
6489048,000004A0,false,Rx,0,8,00,00,00,00,00,00,00,00,
6489296,000005A0,false,Rx,0,8,64,01,00,B8,07,00,00,30,
6491070,00000320,false,Rx,0,8,02,06,00,01,00,00,00,00,
6495870,000001A0,false,Rx,0,8,00,43,00,00,FE,FE,00,9D,
6502826,000001A0,false,Rx,0,8,00,43,00,00,FE,FE,00,9E,
6503028,000004A0,false,Rx,0,8,00,00,00,00,00,00,00,00,
6503282,000005A0,false,Rx,0,8,64,01,00,66,15,00,00,30,
6504826,00000050,false,Rx,0,4,00,01,10,11,00,00,00,00,
6509858,000001A0,false,Rx,0,8,00,43,00,00,FE,FE,00,9F,
6515410,00000320,false,Rx,0,8,02,06,00,01,00,00,00,00,
6516878,000001A0,false,Rx,0,8,00,43,00,00,FE,FE,00,90,
6517135,000004A0,false,Rx,0,8,00,00,00,00,00,00,00,00,
6517307,000005A0,false,Rx,0,8,64,01,00,14,23,00,00,30,
6523836,000001A0,false,Rx,0,8,00,43,00,00,FE,FE,00,91,
6524870,00000050,false,Rx,0,4,00,01,20,21,00,00,00,00,
6530882,000001A0,false,Rx,0,8,00,43,00,00,FE,FE,00,92,
6531137,000004A0,false,Rx,0,8,00,00,00,00,00,00,00,00,
6531384,000005A0,false,Rx,0,8,64,01,00,C2,30,00,00,30,
6537823,000001A0,false,Rx,0,8,00,43,00,00,FE,FE,00,93,
6539853,00000570,false,Rx,0,4,07,00,EB,00,00,00,00,00,
6541630,00000320,false,Rx,0,8,02,06,00,01,00,00,00,00,
6544916,000001A0,false,Rx,0,8,00,43,00,00,FE,FE,00,94,
6545043,00000050,false,Rx,0,4,00,01,30,31,00,00,00,00,
6545295,000004A0,false,Rx,0,8,00,00,00,00,00,00,00,00,
6545549,000005A0,false,Rx,0,8,64,01,00,70,3E,00,00,30,
6551858,000001A0,false,Rx,0,8,00,43,00,00,FE,FE,00,95,
6555214,00000588,false,Rx,0,8,E0,00,00,00,00,00,00,00,
6558873,000001A0,false,Rx,0,8,00,43,00,00,FE,FE,00,96,
6559127,000004A0,false,Rx,0,8,00,00,00,00,00,00,00,00,
6559298,000005A0,false,Rx,0,8,64,01,00,1E,4C,00,00,30,
6561727,00000288,false,Rx,0,8,0C,53,10,00,00,56,00,00,
6561750,00000380,false,Rx,0,8,00,4E,00,00,00,00,00,00,
6564923,00000050,false,Rx,0,4,00,01,40,41,00,00,00,00,
6565277,00000480,false,Rx,0,8,19,20,00,00,00,FF,00,C6,
6565911,000001A0,false,Rx,0,8,00,43,00,00,FE,FE,00,97,
6566311,00000320,false,Rx,0,8,02,06,00,01,00,00,00,00,
6566643,000005D8,false,Rx,0,8,15,04,00,03,01,00,00,00,
6566964,000005D0,false,Rx,0,6,80,47,51,30,24,41,00,00,
6571230,00000280,false,Rx,0,8,01,00,00,00,00,00,2B,00,
6571481,00000488,false,Rx,0,8,C9,00,00,7F,A6,00,00,10,
6572947,000001A0,false,Rx,0,8,00,43,00,00,FE,FE,00,98,
6573203,000004A0,false,Rx,0,8,00,00,00,00,00,00,00,00,
6573452,000005A0,false,Rx,0,8,64,01,00,CC,59,00,00,30,
6575220,00000588,false,Rx,0,8,E5,00,7F,00,31,00,00,00,
6579835,000001A0,false,Rx,0,8,00,43,00,00,FE,FE,00,99,
6581661,00000288,false,Rx,0,8,0C,53,00,00,00,00,00,00,
6581684,00000380,false,Rx,0,8,00,4E,00,00,00,00,00,00,
6584896,00000050,false,Rx,0,4,00,01,50,51,00,00,00,00,
6585225,00000480,false,Rx,0,8,19,22,00,00,19,06,00,24,
6586996,000001A0,false,Rx,0,8,00,43,00,00,FE,FE,00,9A,
6587249,000004A0,false,Rx,0,8,00,00,00,00,00,00,00,00,
6587421,000005A0,false,Rx,0,8,64,01,00,7A,67,00,00,30,
6591198,00000280,false,Rx,0,8,01,00,00,00,00,00,2B,00,
6591451,00000488,false,Rx,0,8,F9,00,00,7F,A6,00,00,20,
6592159,00000320,false,Rx,0,8,02,06,00,01,00,00,00,00,
6594008,000001A0,false,Rx,0,8,00,43,00,00,FE,FE,00,9B,
6595246,00000588,false,Rx,0,8,ED,00,7F,00,4A,00,00,00,
6601796,000001A0,false,Rx,0,8,00,43,00,00,FE,FE,00,9C,
6601823,000004A0,false,Rx,0,8,00,00,00,00,00,00,00,00,
6601839,00000288,false,Rx,0,8,0C,53,00,00,00,56,00,00,
6601855,00000380,false,Rx,0,8,00,4E,00,09,00,00,00,00,
6601871,000005A0,false,Rx,0,8,64,01,00,28,75,00,00,30,
6605000,00000050,false,Rx,0,4,00,01,60,61,00,00,00,00,
6605207,00000480,false,Rx,0,8,19,22,00,00,19,06,00,24,
6607960,000001A0,false,Rx,0,8,00,43,00,00,FE,FE,00,9D,
6611248,00000280,false,Rx,0,8,01,71,00,00,71,00,2B,00,
6611505,00000488,false,Rx,0,8,E9,00,00,7F,A6,00,00,30,
6615008,000001A0,false,Rx,0,8,00,43,00,00,FE,FE,00,9E,
6615256,000004A0,false,Rx,0,8,00,00,00,00,00,00,00,00,
6615510,00000588,false,Rx,0,8,E9,01,7F,00,57,00,00,00,
6615681,000005A0,false,Rx,0,8,64,01,00,D6,82,00,00,30,
6616690,00000320,false,Rx,0,8,82,06,00,01,00,00,00,00,
6617017,00000420,false,Rx,0,8,06,78,78,44,00,00,FF,00,
6621800,00000288,false,Rx,0,8,75,53,00,00,00,56,00,00,
6621827,00000380,false,Rx,0,8,00,4E,00,09,00,00,00,00,
6621973,000001A0,false,Rx,0,8,00,43,00,00,FE,FE,00,9F,
6624973,00000050,false,Rx,0,4,00,01,70,71,00,00,00,00,
6625227,00000480,false,Rx,0,8,53,22,00,00,19,06,00,6E,
6628963,000001A0,false,Rx,0,8,00,43,00,00,FE,FE,00,90,
6629218,000004A0,false,Rx,0,8,00,00,00,00,00,00,00,00,
6629469,000005A0,false,Rx,0,8,64,01,00,84,90,00,00,30,
6631237,00000280,false,Rx,0,8,01,71,00,00,71,00,2B,00,
6631496,00000488,false,Rx,0,8,99,00,00,7F,A6,00,00,40,
6635262,00000588,false,Rx,0,8,E9,01,7F,00,5D,00,00,00,
6635991,000001A0,false,Rx,0,8,00,43,00,00,FE,FE,00,91,
6637186,00000010,false,Rx,0,6,4B,EF,DD,C4,FA,EE,00,00,
6641768,00000570,false,Rx,0,4,07,00,EB,00,00,00,00,00,
6641790,00000288,false,Rx,0,8,75,53,00,00,00,56,00,00,
6641806,00000380,false,Rx,0,8,00,4E,00,09,00,00,00,00,
6641822,00000320,false,Rx,0,8,82,06,00,01,00,00,00,00,
6642984,000001A0,false,Rx,0,8,00,43,00,00,FE,FE,00,92,
6643240,000004A0,false,Rx,0,8,00,00,00,00,00,00,00,00,
6643486,000005A0,false,Rx,0,8,64,01,00,32,9E,00,00,30,
6644993,00000050,false,Rx,0,4,00,01,80,81,00,00,00,00,
6645255,00000480,false,Rx,0,8,53,22,00,00,19,06,00,6E,
6649984,000001A0,false,Rx,0,8,00,43,00,00,FE,FE,00,93,
6651244,00000280,false,Rx,0,8,01,71,00,00,71,00,2B,00,
6651420,00000488,false,Rx,0,8,89,00,00,7F,A6,00,00,50,
6655230,00000588,false,Rx,0,8,E9,01,7F,00,60,00,00,00,
6657001,000001A0,false,Rx,0,8,00,43,00,00,FE,FE,00,94,
6657252,000004A0,false,Rx,0,8,00,00,00,00,00,00,00,00,
6657506,000005A0,false,Rx,0,8,64,01,00,E0,AB,00,00,30,
6661804,00000288,false,Rx,0,8,75,53,00,00,00,56,00,00,
6661831,00000380,false,Rx,0,8,00,4E,00,09,00,00,00,00,
6662331,00000011,false,Rx,0,6,DC,7F,1B,B5,CB,CB,00,00,
6663951,000001A0,false,Rx,0,8,00,43,00,00,FE,FE,00,95,
6664963,00000050,false,Rx,0,4,00,01,90,91,00,00,00,00,
6665219,00000480,false,Rx,0,8,53,22,00,00,19,06,00,6E,
6668202,00000320,false,Rx,0,8,82,06,00,01,00,00,00,00,
6668531,000005D8,false,Rx,0,8,15,04,00,03,01,00,00,00,
6668852,000005D0,false,Rx,0,6,80,47,51,30,24,41,00,00,
6669183,00000520,false,Rx,0,8,51,67,01,42,00,75,34,04,
6671030,000001A0,false,Rx,0,8,00,43,00,00,FE,FE,00,96,
6671276,00000280,false,Rx,0,8,01,71,00,00,71,00,2B,00,
6671530,00000488,false,Rx,0,8,B9,00,00,7F,A6,00,00,60,
6671776,000004A0,false,Rx,0,8,00,00,00,00,00,00,00,00,
6672023,000005A0,false,Rx,0,8,64,01,00,8E,B9,00,00,30,
6675230,00000588,false,Rx,0,8,E9,02,7F,00,62,00,00,00,
6677985,000001A0,false,Rx,0,8,00,43,00,00,FE,FE,00,97,
6681855,00000288,false,Rx,0,8,75,53,00,00,00,56,00,00,
6681879,00000380,false,Rx,0,8,00,4E,00,09,00,00,00,00,
6685020,000001A0,false,Rx,0,8,00,43,00,00,FE,FE,00,98,
6685157,00000050,false,Rx,0,4,00,01,A0,A1,00,00,00,00,
6685403,00000480,false,Rx,0,8,53,22,00,00,19,06,00,6E,
6685657,000004A0,false,Rx,0,8,00,00,00,00,00,00,00,00,
6685903,000005A0,false,Rx,0,8,64,01,00,3C,C7,00,00,30,
6691230,00000280,false,Rx,0,8,01,71,00,00,71,00,2B,00,
6691479,00000488,false,Rx,0,8,A9,00,00,7F,A6,00,00,70,
6691733,00000320,false,Rx,0,8,82,06,00,01,00,00,00,00,
6692056,000001A0,false,Rx,0,8,00,43,00,00,FE,FE,00,99,
6695263,00000588,false,Rx,0,8,E9,02,7F,00,63,00,00,00,
6699008,000001A0,false,Rx,0,8,00,43,00,00,FE,FE,00,9A,
6699257,000004A0,false,Rx,0,8,00,00,00,00,00,00,00,00,
6699511,000005A0,false,Rx,0,8,64,01,00,EA,D4,00,00,30,
6701839,00000288,false,Rx,0,8,8F,53,00,00,00,56,00,00,
6701866,00000380,false,Rx,0,8,00,4E,00,09,00,00,00,00,
6705046,00000050,false,Rx,0,4,00,01,B0,B1,00,00,00,00,
6705233,00000480,false,Rx,0,8,A4,22,00,00,19,06,00,99,
6706016,000001A0,false,Rx,0,8,00,43,00,00,FE,FE,00,9B,
6711197,00000280,false,Rx,0,8,01,71,00,00,71,00,2B,00,
6711448,00000488,false,Rx,0,8,59,00,00,7F,A6,00,00,80,
6713063,000001A0,false,Rx,0,8,00,43,00,00,FE,FE,00,9C,
6713315,000004A0,false,Rx,0,8,00,00,00,00,00,00,00,00,
6713569,000005A0,false,Rx,0,8,64,01,00,98,E2,00,00,30,
6715254,00000588,false,Rx,0,8,E9,02,7F,00,63,00,00,00,
6716265,00000320,false,Rx,0,8,82,06,00,01,00,00,00,00,
6720006,000001A0,false,Rx,0,8,00,43,00,00,FE,FE,00,9D,
6721858,00000288,false,Rx,0,8,8F,53,00,00,00,56,00,00,
6721888,00000380,false,Rx,0,8,00,4E,00,09,00,00,00,00,
6725123,00000050,false,Rx,0,4,00,01,C0,C1,00,00,00,00,
6725256,00000480,false,Rx,0,8,A4,22,00,00,19,06,00,99,
6727023,000001A0,false,Rx,0,8,00,43,00,00,FE,FE,00,9E,
6727275,000004A0,false,Rx,0,8,00,00,00,00,00,00,00,00,
6727529,000005A0,false,Rx,0,8,64,01,00,46,F0,00,00,30,
6731183,00000280,false,Rx,0,8,01,71,00,00,71,00,2B,00,
6731434,00000488,false,Rx,0,8,49,00,00,7F,A6,00,00,90,
6734037,000001A0,false,Rx,0,8,00,43,00,00,FE,FE,00,9F,
6735200,00000588,false,Rx,0,8,E9,02,7F,00,63,00,00,00,
6741869,000001A0,false,Rx,0,8,00,43,00,00,FE,FE,00,90,
6741891,000004A0,false,Rx,0,8,00,00,00,00,00,00,00,00,
6741907,00000288,false,Rx,0,8,8F,53,00,00,00,56,00,00,
6741923,00000380,false,Rx,0,8,00,4E,00,09,00,00,00,00,
6741939,00000570,false,Rx,0,4,07,00,EB,00,00,00,00,00,
6742115,000005A0,false,Rx,0,8,64,01,00,F4,FD,00,00,30,
6742367,00000320,false,Rx,0,8,82,06,00,01,00,00,00,00,
6745066,00000050,false,Rx,0,4,00,01,D0,D1,00,00,00,00,
6745315,00000480,false,Rx,0,8,A4,22,00,00,19,06,00,99,
6748073,000001A0,false,Rx,0,8,00,43,00,00,FE,FE,00,91,
6751205,00000280,false,Rx,0,8,01,71,00,00,71,00,2B,00,
6751451,00000488,false,Rx,0,8,79,00,00,7F,A6,00,00,A0,
6755040,000001A0,false,Rx,0,8,00,43,00,00,FE,FE,00,92,
6755287,000004A0,false,Rx,0,8,00,00,00,00,00,00,00,00,
6755540,00000588,false,Rx,0,8,E9,02,7F,00,63,00,00,00,
6755786,000005A0,false,Rx,0,8,64,01,00,A2,0B,00,00,30,
6761930,00000288,false,Rx,0,8,8F,53,00,00,00,56,00,00,
6761960,00000380,false,Rx,0,8,00,4E,00,09,00,00,00,00,
6761976,000001A0,false,Rx,0,8,00,43,00,00,FE,FE,00,93,
6765096,00000050,false,Rx,0,4,00,01,E0,E1,00,00,00,00,
6765311,00000480,false,Rx,0,8,A4,22,00,00,19,06,00,99,
6766927,00000320,false,Rx,0,8,82,06,00,01,00,00,00,00,
6767257,000005D8,false,Rx,0,8,15,04,00,03,01,00,00,00,
6767515,000005D0,false,Rx,0,6,80,47,51,30,24,41,00,00,
6769050,000001A0,false,Rx,0,8,00,43,00,00,FE,FE,00,94,
6769300,000004A0,false,Rx,0,8,00,00,00,00,00,00,00,00,
6769553,000005A0,false,Rx,0,8,64,01,00,50,19,00,00,30,
6771237,00000280,false,Rx,0,8,01,71,00,00,71,00,2B,00,
6771497,00000488,false,Rx,0,8,69,00,00,7F,A6,00,00,B0,
6775226,00000588,false,Rx,0,8,E9,03,7F,00,63,00,00,00,
6776088,000001A0,false,Rx,0,8,00,43,00,00,FE,FE,00,95,
6781976,00000288,false,Rx,0,8,DE,53,00,00,00,56,00,00,
6781999,00000380,false,Rx,0,8,00,4E,00,09,00,00,00,00,
6783020,000001A0,false,Rx,0,8,00,43,00,00,FE,FE,00,96,
6783266,000004A0,false,Rx,0,8,00,00,00,00,00,00,00,00,
6783520,000005A0,false,Rx,0,8,64,01,00,FE,26,00,00,30,
6785058,00000050,false,Rx,0,4,00,01,F0,F1,00,00,00,00,
6785303,00000480,false,Rx,0,8,ED,22,00,00,19,06,00,D0,
6790033,000001A0,false,Rx,0,8,00,43,00,00,FE,FE,00,97,
6791196,00000280,false,Rx,0,8,01,71,00,00,71,00,2B,00,
6791442,00000488,false,Rx,0,8,19,00,00,7F,A6,00,00,C0,
6791771,00000320,false,Rx,0,8,82,06,00,01,00,00,00,00,
6795305,00000588,false,Rx,0,8,E9,03,7F,00,63,00,00,00,
6797108,000001A0,false,Rx,0,8,00,43,00,00,FE,FE,00,98,
6797359,000004A0,false,Rx,0,8,00,00,00,00,00,00,00,00,
6797613,000005A0,false,Rx,0,8,64,01,00,AC,34,00,00,30,
6801958,00000288,false,Rx,0,8,DE,53,00,00,00,56,00,00,
6801985,00000380,false,Rx,0,8,00,4E,00,09,00,00,00,00,
6804022,000001A0,false,Rx,0,8,00,43,00,00,FE,FE,00,99,
6805112,00000050,false,Rx,0,4,00,01,00,01,00,00,00,00,
6805359,00000480,false,Rx,0,8,ED,22,00,00,19,06,00,D0,
6811069,000001A0,false,Rx,0,8,00,43,00,00,FE,FE,00,9A,
6811316,00000280,false,Rx,0,8,01,71,00,00,71,00,2B,00,
6811569,00000488,false,Rx,0,8,F6,00,00,80,A6,00,00,D0,
6811815,000004A0,false,Rx,0,8,00,00,00,00,00,00,00,00,
6812062,000005A0,false,Rx,0,8,64,01,00,5A,42,00,00,30,
6815265,00000588,false,Rx,0,8,E9,03,80,00,63,00,00,00,
6816429,00000320,false,Rx,0,8,82,06,00,01,00,00,00,00,
6816684,00000420,false,Rx,0,8,06,78,78,44,00,00,FF,00,
6818148,000001A0,false,Rx,0,8,00,43,00,00,FE,FE,00,9B,
6821941,00000288,false,Rx,0,8,DE,53,00,00,00,56,00,00,
6821963,00000380,false,Rx,0,8,00,4E,00,09,00,00,00,00,
6825102,000001A0,false,Rx,0,8,00,43,00,00,FE,FE,00,9C,
6825226,00000050,false,Rx,0,4,00,01,10,11,00,00,00,00,
6825476,00000480,false,Rx,0,8,ED,22,00,00,19,06,00,D0,
6825730,000004A0,false,Rx,0,8,00,00,00,00,00,00,00,00,
6825976,000005A0,false,Rx,0,8,64,01,00,08,50,00,00,30,
6831219,00000280,false,Rx,0,8,01,71,00,00,71,00,2B,00,
6831470,00000488,false,Rx,0,8,39,00,00,7F,A6,00,00,E0,
6832178,000001A0,false,Rx,0,8,00,43,00,00,FE,FE,00,9D,
6835235,00000588,false,Rx,0,8,E9,03,7F,00,63,00,00,00,
6839081,000001A0,false,Rx,0,8,00,43,00,00,FE,FE,00,9E,
6839275,000004A0,false,Rx,0,8,00,00,00,00,00,00,00,00,
6839529,000005A0,false,Rx,0,8,64,01,00,B6,5D,00,00,30,
6842060,00000570,false,Rx,0,4,07,00,EB,00,00,00,00,00,
6842091,00000288,false,Rx,0,8,DE,53,00,00,00,56,00,00,
6842108,00000380,false,Rx,0,8,00,4E,00,09,00,00,00,00,
6842124,00000320,false,Rx,0,8,82,06,00,01,00,00,00,00,
6845190,00000050,false,Rx,0,4,00,01,20,21,00,00,00,00,
6845360,00000480,false,Rx,0,8,ED,22,00,00,19,06,00,D0,
6846148,000001A0,false,Rx,0,8,00,43,00,00,FE,FE,00,9F,
6851250,00000280,false,Rx,0,8,01,71,00,00,71,00,2B,00,
6851421,00000488,false,Rx,0,8,D6,00,00,80,A6,00,00,F0,
6853116,000001A0,false,Rx,0,8,00,43,00,00,FE,FE,00,90,
6853362,000004A0,false,Rx,0,8,00,00,00,00,00,00,00,00,
6853616,000005A0,false,Rx,0,8,64,01,00,64,6B,00,00,30,
6855228,00000588,false,Rx,0,8,E9,03,80,00,63,00,00,00,
6860033,000001A0,false,Rx,0,8,00,43,00,00,FE,FE,00,91,
6862065,00000288,false,Rx,0,8,0C,53,00,00,00,56,00,00,
6862087,00000380,false,Rx,0,8,00,4E,00,09,00,00,00,00,
6865238,00000480,false,Rx,0,8,19,22,00,00,19,06,00,24,
6865364,00000050,false,Rx,0,4,00,01,30,31,00,00,00,00,
6867055,00000320,false,Rx,0,8,82,06,00,01,00,00,00,00,
6867305,000001A0,false,Rx,0,8,00,43,00,00,FE,FE,00,92,
6867559,000004A0,false,Rx,0,8,00,00,00,00,00,00,00,00,
6867805,000005A0,false,Rx,0,8,64,01,00,12,79,00,00,30,
6868053,000005D8,false,Rx,0,8,15,04,00,03,01,00,00,00,
6868377,000005D0,false,Rx,0,6,80,47,51,30,24,41,00,00,
6868635,00000520,false,Rx,0,8,0C,88,01,42,00,75,34,04,
6871230,00000280,false,Rx,0,8,01,71,00,00,71,00,2B,00,
6871480,00000488,false,Rx,0,8,26,00,00,80,A6,00,00,00,
6874231,000001A0,false,Rx,0,8,00,43,00,00,FE,FE,00,13,
6875244,00000588,false,Rx,0,8,E9,04,80,00,63,00,00,00,
6895145,00001000,true,Rx,0,8,00,00,02,F1,00,01,0A,74,
6896625,00001001,true,Rx,0,8,00,00,00,00,00,00,00,00,
6882140,000001A0,false,Rx,0,8,00,43,00,00,FE,FE,00,14,
6882164,00000288,false,Rx,0,8,0C,53,00,00,00,56,00,00,
6882180,00000380,false,Rx,0,8,00,4E,00,09,00,00,00,00,
6882196,000004A0,false,Rx,0,8,00,00,00,00,00,00,00,00,
6882212,000005A0,false,Rx,0,8,64,01,00,C0,86,00,00,30,
6885201,00000480,false,Rx,0,8,19,22,00,00,19,06,00,24,
6885372,00000050,false,Rx,0,4,00,01,40,41,00,00,00,00,
6888124,000001A0,false,Rx,0,8,00,43,00,00,FE,FE,00,15,
6891182,00000280,false,Rx,0,8,01,71,00,00,71,00,2B,00,
6891428,00000488,false,Rx,0,8,C9,00,00,7F,A6,00,00,10,
6892286,00000320,false,Rx,0,8,82,06,00,01,00,00,00,00,
6898642,000001A0,false,Rx,0,8,00,43,00,00,FE,FE,00,16,
6898672,000004A0,false,Rx,0,8,00,00,00,00,00,00,00,00,
6898689,00000588,false,Rx,0,8,E9,04,7F,00,63,00,00,00,
6898705,000005A0,false,Rx,0,8,64,01,00,6E,94,00,00,30,
6902155,00000288,false,Rx,0,8,0C,53,00,00,00,56,00,00,
6902182,00000380,false,Rx,0,8,00,4E,00,09,00,00,00,00,
6902200,000001A0,false,Rx,0,8,00,43,00,00,FE,FE,00,17,
6905272,00000480,false,Rx,0,8,19,22,00,00,19,06,00,24,
6905399,00000050,false,Rx,0,4,00,01,50,51,00,00,00,00,
6909139,000001A0,false,Rx,0,8,00,43,00,00,FE,FE,00,18,
6909385,000004A0,false,Rx,0,8,00,00,00,00,00,00,00,00,
6909640,000005A0,false,Rx,0,8,64,01,00,1C,A2,00,00,30,
6911180,00000280,false,Rx,0,8,01,70,00,00,70,00,2B,00,
6911426,00000488,false,Rx,0,8,06,00,00,80,A6,00,00,20,
6915240,00000588,false,Rx,0,8,E9,04,80,00,63,00,00,00,
6916178,000001A0,false,Rx,0,8,00,43,00,00,FE,FE,00,19,
6916583,00000320,false,Rx,0,8,82,06,00,01,00,00,00,00,
6922154,00000288,false,Rx,0,8,0C,53,00,00,00,56,00,00,
6922179,00000380,false,Rx,0,8,00,4E,00,09,00,00,00,00,
6923147,000001A0,false,Rx,0,8,00,43,00,00,FE,FE,00,1A,
6923397,000004A0,false,Rx,0,8,00,00,00,00,00,00,00,00,
6923652,000005A0,false,Rx,0,8,64,01,00,CA,AF,00,00,30,
6925190,00000480,false,Rx,0,8,19,22,00,00,19,06,00,24,
6925361,00000050,false,Rx,0,4,00,01,60,61,00,00,00,00,
6930159,000001A0,false,Rx,0,8,00,43,00,00,FE,FE,00,1B,
6931244,00000280,false,Rx,0,8,01,70,00,00,70,00,2B,00,
6931416,00000488,false,Rx,0,8,16,00,00,80,A6,00,00,30,
6935230,00000588,false,Rx,0,8,E9,04,80,00,63,00,00,00,
6937153,000001A0,false,Rx,0,8,00,43,00,00,FE,FE,00,1C,
6937400,000004A0,false,Rx,0,8,00,00,00,00,00,00,00,00,
6937653,000005A0,false,Rx,0,8,64,01,00,78,BD,00,00,30,
6942153,00000570,false,Rx,0,4,07,00,EB,00,00,00,00,00,
6942175,00000288,false,Rx,0,8,75,53,00,00,00,56,00,00,
6942191,00000380,false,Rx,0,8,00,4E,00,09,00,00,00,00,
6942207,00000320,false,Rx,0,8,82,06,00,01,00,00,00,00,
6944262,000001A0,false,Rx,0,8,00,43,00,00,FE,FE,00,1D,
6945188,00000480,false,Rx,0,8,53,22,00,00,19,06,00,6E,
6945364,00000050,false,Rx,0,4,00,01,70,71,00,00,00,00,
6951144,000001A0,false,Rx,0,8,00,43,00,00,FE,FE,00,1E,
6951396,00000280,false,Rx,0,8,01,70,00,00,70,00,2B,00,
6951649,00000488,false,Rx,0,8,99,00,00,7F,A6,00,00,40,
6951895,000004A0,false,Rx,0,8,00,00,00,00,00,00,00,00,
6952144,000005A0,false,Rx,0,8,64,01,00,26,CB,00,00,30,
6955200,00000588,false,Rx,0,8,E9,04,7F,00,63,00,00,00,
6958182,000001A0,false,Rx,0,8,00,43,00,00,FE,FE,00,1F,
6962188,00000288,false,Rx,0,8,75,53,00,00,00,56,00,00,
6962216,00000380,false,Rx,0,8,00,4E,00,09,00,00,00,00,
6965149,000001A0,false,Rx,0,8,00,43,00,00,FE,FE,00,10,
6965320,00000050,false,Rx,0,4,00,01,80,81,00,00,00,00,
6965573,00000480,false,Rx,0,8,53,22,00,00,19,06,00,6E,
6965819,000004A0,false,Rx,0,8,00,00,00,00,00,00,00,00,
6966070,000005A0,false,Rx,0,8,64,01,00,D4,D8,00,00,30,
6967155,00000320,false,Rx,0,8,82,06,00,01,00,00,00,00,
6967476,000005D8,false,Rx,0,8,15,04,00,03,01,00,00,00,
6967805,000005D0,false,Rx,0,6,80,47,51,30,24,41,00,00,
6971192,00000280,false,Rx,0,8,01,70,00,00,70,00,2B,00,
6971443,00000488,false,Rx,0,8,89,00,00,7F,A6,00,00,50,
6972301,000001A0,false,Rx,0,8,00,43,00,00,FE,FE,00,11,
6975208,00000588,false,Rx,0,8,E9,04,7F,00,63,00,00,00,
6979100,000001A0,false,Rx,0,8,00,43,00,00,FE,FE,00,12,
6979351,000004A0,false,Rx,0,8,00,00,00,00,00,00,00,00,
6979605,000005A0,false,Rx,0,8,64,01,00,82,E6,00,00,30,
6982188,00000288,false,Rx,0,8,75,53,00,00,00,56,00,00,
6982210,00000380,false,Rx,0,8,00,4E,00,09,00,00,00,00,
6985241,00000480,false,Rx,0,8,53,22,00,00,19,06,00,6E,
6985420,00000050,false,Rx,0,4,00,01,90,91,00,00,00,00,
6986202,000001A0,false,Rx,0,8,00,43,00,00,FE,FE,00,13,
6991225,00000280,false,Rx,0,8,01,70,00,00,70,00,2B,00,
6991434,00000488,false,Rx,0,8,B9,00,00,7F,A6,00,00,60,
6991838,00000320,false,Rx,0,8,82,06,00,01,00,00,00,00,
6993223,000001A0,false,Rx,0,8,00,43,00,00,FE,FE,00,14,
6993475,000004A0,false,Rx,0,8,00,00,00,00,00,00,00,00,
6993728,000005A0,false,Rx,0,8,64,01,00,30,F4,00,00,30,
6995188,00000588,false,Rx,0,8,E9,05,7F,00,63,00,00,00,
7000139,000001A0,false,Rx,0,8,00,43,00,00,FE,FE,00,15,
7002240,00000288,false,Rx,0,8,75,53,00,00,00,56,00,00,
7002262,00000380,false,Rx,0,8,00,4E,00,09,00,00,00,00,
7005180,00000480,false,Rx,0,8,53,22,00,00,19,06,00,6E,
7005357,00000050,false,Rx,0,4,00,01,A0,A1,00,00,00,00,
7007200,000001A0,false,Rx,0,8,00,43,00,00,FE,FE,00,16,
7007452,000004A0,false,Rx,0,8,00,00,00,00,00,00,00,00,
7007705,000005A0,false,Rx,0,8,64,01,00,DE,01,00,00,30,
7011212,00000280,false,Rx,0,8,01,70,00,00,70,00,2B,00,
7011463,00000488,false,Rx,0,8,56,00,00,80,A6,00,00,70,
7014214,000001A0,false,Rx,0,8,00,43,00,00,FE,FE,00,17,
7015226,00000588,false,Rx,0,8,E9,05,80,00,63,00,00,00,
7016545,00000320,false,Rx,0,8,82,06,00,01,00,00,00,00,
7016872,00000420,false,Rx,0,8,06,78,78,44,00,00,FF,00,
7022272,000001A0,false,Rx,0,8,00,43,00,00,FE,FE,00,18,
7022295,00000288,false,Rx,0,8,8F,53,00,00,00,56,00,00,
7022311,00000380,false,Rx,0,8,00,4E,00,09,00,00,00,00,
7022327,000004A0,false,Rx,0,8,00,00,00,00,00,00,00,00,
7022342,000005A0,false,Rx,0,8,64,01,00,8C,0F,00,00,30,
7025228,00000480,false,Rx,0,8,A4,22,00,00,19,06,00,99,
7025347,00000050,false,Rx,0,4,00,01,B0,B1,00,00,00,00,
7028250,000001A0,false,Rx,0,8,00,43,00,00,FE,FE,00,19,
7031230,00000280,false,Rx,0,8,01,70,00,00,70,00,2B,00,
7031407,00000488,false,Rx,0,8,59,00,00,7F,A6,00,00,80,
7035219,00000588,false,Rx,0,8,E9,05,7F,00,63,00,00,00,
7035471,000001A0,false,Rx,0,8,00,43,00,00,FE,FE,00,1A,
7035724,000004A0,false,Rx,0,8,00,00,00,00,00,00,00,00,
7035970,000005A0,false,Rx,0,8,64,01,00,3A,1D,00,00,30,
7040702,00000570,false,Rx,0,4,07,00,EB,00,00,00,00,00,
7042497,00000288,false,Rx,0,8,8F,53,00,00,00,56,00,00,
7042522,00000380,false,Rx,0,8,00,4E,00,09,00,00,00,00,
7042539,00000320,false,Rx,0,8,82,06,00,01,00,00,00,00,
7042555,000001A0,false,Rx,0,8,00,43,00,00,FE,FE,00,1B,
7045262,00000480,false,Rx,0,8,A4,22,00,00,19,06,00,99,
7045390,00000050,false,Rx,0,4,00,01,C0,C1,00,00,00,00,
7049248,000001A0,false,Rx,0,8,00,43,00,00,FE,FE,00,1C,
7049509,000004A0,false,Rx,0,8,00,00,00,00,00,00,00,00,
7049680,000005A0,false,Rx,0,8,64,01,00,E8,2A,00,00,30,
7051214,00000280,false,Rx,0,8,01,70,00,00,70,00,2B,00,
7051465,00000488,false,Rx,0,8,49,00,00,7F,A6,00,00,90,
7055200,00000588,false,Rx,0,8,E9,05,7F,00,63,00,00,00,
7056287,000001A0,false,Rx,0,8,00,43,00,00,FE,FE,00,1D,
7062437,00000288,false,Rx,0,8,8F,53,00,00,00,56,00,00,
7062461,00000380,false,Rx,0,8,00,4E,00,09,00,00,00,00,
7063229,000001A0,false,Rx,0,8,00,43,00,00,FE,FE,00,1E,
7063483,000004A0,false,Rx,0,8,00,00,00,00,00,00,00,00,
7063686,000005A0,false,Rx,0,8,64,01,00,96,38,00,00,30,
7065173,00000480,false,Rx,0,8,A4,22,00,00,19,06,00,99,
7065349,00000050,false,Rx,0,4,00,01,D0,D1,00,00,00,00,
7067190,00000320,false,Rx,0,8,82,06,00,01,00,00,00,00,
7067524,000005D8,false,Rx,0,8,15,04,00,03,01,00,00,00,
7067845,000005D0,false,Rx,0,6,80,47,51,30,24,41,00,00,
7068171,00000520,false,Rx,0,8,15,C0,01,42,00,75,34,04,
7070243,000001A0,false,Rx,0,8,00,43,00,00,FE,FE,00,1F,
7071182,00000280,false,Rx,0,8,01,70,00,00,70,00,2B,00,
7071434,00000488,false,Rx,0,8,86,00,00,80,A6,00,00,A0,
7075247,00000588,false,Rx,0,8,E9,05,80,00,63,00,00,00,
7077246,000001A0,false,Rx,0,8,00,43,00,00,FE,FE,00,10,
7077505,000004A0,false,Rx,0,8,00,00,00,00,00,00,00,00,
7077751,000005A0,false,Rx,0,8,64,01,00,44,46,00,00,30,
7082379,00000288,false,Rx,0,8,8F,53,00,00,00,56,00,00,
7082401,00000380,false,Rx,0,8,00,4E,00,09,00,00,00,00,
7084261,000001A0,false,Rx,0,8,00,43,00,00,FE,FE,00,11,
7085202,00000480,false,Rx,0,8,A4,22,00,00,19,06,00,99,
7085377,00000050,false,Rx,0,4,00,01,E0,E1,00,00,00,00,
7091235,00000280,false,Rx,0,8,01,70,00,00,70,00,2B,00,
7091411,000001A0,false,Rx,0,8,00,43,00,00,FE,FE,00,12,
7091664,00000488,false,Rx,0,8,69,00,00,7F,A6,00,00,B0,
7091911,000004A0,false,Rx,0,8,00,00,00,00,00,00,00,00,
7092160,000005A0,false,Rx,0,8,64,01,00,F2,53,00,00,30,
7093022,00000320,false,Rx,0,8,82,06,00,01,00,00,00,00,
7095171,00000588,false,Rx,0,8,E9,06,7F,00,63,00,00,00,
7098301,000001A0,false,Rx,0,8,00,43,00,00,FE,FE,00,13,
7102413,00000288,false,Rx,0,8,DE,53,00,00,00,56,00,00,
7102435,00000380,false,Rx,0,8,00,4E,00,09,00,00,00,00,
7105332,00000480,false,Rx,0,8,ED,22,00,00,19,06,00,D0,
7105496,000001A0,false,Rx,0,8,00,43,00,00,FE,FE,00,14,
7105592,00000050,false,Rx,0,4,00,01,F0,F1,00,00,00,00,
7105912,000004A0,false,Rx,0,8,00,00,00,00,00,00,00,00,
7106087,000005A0,false,Rx,0,8,64,01,00,A0,61,00,00,30,
7111190,00000280,false,Rx,0,8,01,70,00,00,70,00,2B,00,
7111441,00000488,false,Rx,0,8,19,00,00,7F,A6,00,00,C0,
7112373,000001A0,false,Rx,0,8,00,43,00,00,FE,FE,00,15,
7115205,00000588,false,Rx,0,8,E9,06,7F,00,63,00,00,00,
7116752,00000320,false,Rx,0,8,82,06,00,01,00,00,00,00,
7119200,000001A0,false,Rx,0,8,00,43,00,00,FE,FE,00,16,
7119451,000004A0,false,Rx,0,8,00,00,00,00,00,00,00,00,
7119705,000005A0,false,Rx,0,8,64,01,00,4E,6F,00,00,30,
7122426,00000288,false,Rx,0,8,DE,53,00,00,00,56,00,00,
7122448,00000380,false,Rx,0,8,00,4E,00,09,00,00,00,00,
7125255,00000480,false,Rx,0,8,ED,22,00,00,19,06,00,D0,
7125432,00000050,false,Rx,0,4,00,01,00,01,00,00,00,00,
7126291,000001A0,false,Rx,0,8,00,43,00,00,FE,FE,00,17,
7131170,00000280,false,Rx,0,8,01,70,00,00,70,00,2B,00,
7131419,00000488,false,Rx,0,8,09,00,00,7F,A6,00,00,D0,
7133265,000001A0,false,Rx,0,8,00,43,00,00,FE,FE,00,18,
7133522,000004A0,false,Rx,0,8,00,00,00,00,00,00,00,00,
7133768,000005A0,false,Rx,0,8,64,01,00,FC,7C,00,00,30,
7135230,00000588,false,Rx,0,8,E9,06,7F,00,63,00,00,00,
7140175,000001A0,false,Rx,0,8,00,43,00,00,FE,FE,00,19,
7140583,00000570,false,Rx,0,4,07,00,EB,00,00,00,00,00,
7142495,00000288,false,Rx,0,8,DE,53,00,00,00,56,00,00,
7142517,00000380,false,Rx,0,8,00,4E,00,09,00,00,00,00,
7142533,00000320,false,Rx,0,8,82,06,00,01,00,00,00,00,
7145265,00000480,false,Rx,0,8,ED,22,00,00,19,06,00,D0,
7145390,00000050,false,Rx,0,4,00,01,10,11,00,00,00,00,
7147330,000001A0,false,Rx,0,8,00,43,00,00,FE,FE,00,1A,
7147608,000004A0,false,Rx,0,8,00,00,00,00,00,00,00,00,
7147779,000005A0,false,Rx,0,8,64,01,00,AA,8A,00,00,30,
7151187,00000280,false,Rx,0,8,01,70,00,00,70,00,2B,00,
7151445,00000488,false,Rx,0,8,C6,00,00,80,A6,00,00,E0,
7154271,000001A0,false,Rx,0,8,00,43,00,00,FE,FE,00,1B,
7155207,00000588,false,Rx,0,8,E9,06,80,00,63,00,00,00,
7162532,00000288,false,Rx,0,8,DE,53,00,00,00,56,00,00,
7162554,000001A0,false,Rx,0,8,00,43,00,00,FE,FE,00,1C,
7162570,00000380,false,Rx,0,8,00,4E,00,09,00,00,00,00,
7162586,000004A0,false,Rx,0,8,00,00,00,00,00,00,00,00,
7162602,000005A0,false,Rx,0,8,64,01,00,58,98,00,00,30,
7165204,00000480,false,Rx,0,8,ED,22,00,00,19,06,00,D0,
7165450,00000050,false,Rx,0,4,00,01,20,21,00,00,00,00,
7167220,00000320,false,Rx,0,8,82,06,00,01,00,00,00,00,
7167549,000005D8,false,Rx,0,8,15,04,00,03,01,00,00,00,
7167795,000005D0,false,Rx,0,6,80,47,51,30,24,41,00,00,
7168349,000001A0,false,Rx,0,8,00,43,00,00,FE,FE,00,1D,
7171183,00000280,false,Rx,0,8,01,70,00,00,70,00,2B,00,
7171429,00000488,false,Rx,0,8,D6,00,00,80,A6,00,00,F0,
7175186,00000588,false,Rx,0,8,E9,06,80,00,63,00,00,00,
7175440,000001A0,false,Rx,0,8,00,43,00,00,FE,FE,00,1E,
7175693,000004A0,false,Rx,0,8,00,00,00,00,00,00,00,00,
7175939,000005A0,false,Rx,0,8,64,01,00,06,A6,00,00,30,
7182557,00000288,false,Rx,0,8,0C,53,00,00,00,56,00,00,
7182579,00000380,false,Rx,0,8,00,4E,00,09,00,00,00,00,
7182595,000001A0,false,Rx,0,8,00,43,00,00,FE,FE,00,1F,
7185227,00000480,false,Rx,0,8,19,22,00,00,19,06,00,24,
7185458,00000050,false,Rx,0,4,00,01,30,31,00,00,00,00,
7189287,000001A0,false,Rx,0,8,00,43,00,00,FE,FE,00,10,
7189566,000004A0,false,Rx,0,8,00,00,00,00,00,00,00,00,
7189737,000005A0,false,Rx,0,8,64,01,00,B4,B3,00,00,30,
7191196,00000280,false,Rx,0,8,01,70,00,00,70,00,2B,00,
7191446,00000488,false,Rx,0,8,26,00,00,80,A6,00,00,00,
7192081,00000320,false,Rx,0,8,82,06,00,01,00,00,00,00,
7195214,00000588,false,Rx,0,8,E9,06,80,00,63,00,00,00,
7196376,000001A0,false,Rx,0,8,00,43,00,00,FE,FE,00,11,
7202654,00000288,false,Rx,0,8,0C,53,00,00,00,56,00,00,
7202678,00000380,false,Rx,0,8,00,4E,00,09,00,00,00,00,
7203321,000001A0,false,Rx,0,8,00,43,00,00,FE,FE,00,12,
7203506,000004A0,false,Rx,0,8,00,00,00,00,00,00,00,00,
7203752,000005A0,false,Rx,0,8,64,01,00,62,C1,00,00,30,
7205214,00000480,false,Rx,0,8,19,22,00,00,19,06,00,24,
7205465,00000050,false,Rx,0,4,00,01,40,41,00,00,00,00,
7210335,000001A0,false,Rx,0,8,00,43,00,00,FE,FE,00,13,
7211197,00000280,false,Rx,0,8,01,70,00,00,70,00,2B,00,
7211448,00000488,false,Rx,0,8,36,00,00,80,A6,00,00,10,
7215185,00000588,false,Rx,0,8,E9,07,80,00,63,00,00,00,
7216579,00000320,false,Rx,0,8,82,06,00,01,00,00,00,00,
7216905,00000420,false,Rx,0,8,06,78,78,44,00,00,FF,00,
7217380,000001A0,false,Rx,0,8,00,43,00,00,FE,FE,00,14,
7217640,000004A0,false,Rx,0,8,00,00,00,00,00,00,00,00,
7217886,000005A0,false,Rx,0,8,64,01,00,10,CF,00,00,30,
7222651,00000288,false,Rx,0,8,0C,53,00,00,00,56,00,00,
7222674,00000380,false,Rx,0,8,00,4E,00,09,00,00,00,00,
7224301,000001A0,false,Rx,0,8,00,43,00,00,FE,FE,00,15,
7225164,00000480,false,Rx,0,8,19,22,00,00,19,06,00,24,
7225486,00000050,false,Rx,0,4,00,01,50,51,00,00,00,00,
7231208,00000280,false,Rx,0,8,01,70,00,00,70,00,2B,00,
7231410,000001A0,false,Rx,0,8,00,43,00,00,FE,FE,00,16,
7231664,00000488,false,Rx,0,8,F9,00,00,7F,A6,00,00,20,
7231910,000004A0,false,Rx,0,8,00,00,00,00,00,00,00,00,
7232161,000005A0,false,Rx,0,8,64,01,00,BE,DC,00,00,30,
7235219,00000588,false,Rx,0,8,E9,07,7F,00,63,00,00,00,
7238352,000001A0,false,Rx,0,8,00,43,00,00,FE,FE,00,17,
7240959,00000570,false,Rx,0,4,07,00,EB,00,00,00,00,00,
7242652,00000288,false,Rx,0,8,0C,53,00,00,00,56,00,00,
7242674,00000380,false,Rx,0,8,00,4E,00,09,00,00,00,00,
7242690,00000320,false,Rx,0,8,82,06,00,01,00,00,00,00,
7245220,00000480,false,Rx,0,8,19,22,00,00,19,06,00,24,
7245474,000001A0,false,Rx,0,8,00,43,00,00,FE,FE,00,18,
7245579,00000050,false,Rx,0,4,00,01,60,61,00,00,00,00,
7245900,000004A0,false,Rx,0,8,00,00,00,00,00,00,00,00,
7246076,000005A0,false,Rx,0,8,64,01,00,6C,EA,00,00,30,
7251208,00000280,false,Rx,0,8,01,70,00,00,70,00,2B,00,
7251404,00000488,false,Rx,0,8,16,00,00,80,A6,00,00,30,
7252413,000001A0,false,Rx,0,8,00,43,00,00,FE,FE,00,19,
7255173,00000588,false,Rx,0,8,E9,07,80,00,63,00,00,00,
7259289,000001A0,false,Rx,0,8,00,43,00,00,FE,FE,00,1A,
7259551,000004A0,false,Rx,0,8,00,00,00,00,00,00,00,00,
7259797,000005A0,false,Rx,0,8,64,01,00,1A,F8,00,00,30,
7262620,00000288,false,Rx,0,8,75,53,00,00,00,56,00,00,
7262643,00000380,false,Rx,0,8,00,4E,00,09,00,00,00,00,
7265219,00000480,false,Rx,0,8,53,22,00,00,19,06,00,6E,
7265552,00000050,false,Rx,0,4,00,01,70,71,00,00,00,00,
7266333,000001A0,false,Rx,0,8,00,43,00,00,FE,FE,00,1B,
7267115,00000320,false,Rx,0,8,82,06,00,01,00,00,00,00,
7267442,000005D8,false,Rx,0,8,15,04,00,03,01,00,00,00,
7267696,000005D0,false,Rx,0,6,80,47,51,30,24,41,00,00,
7268019,00000520,false,Rx,0,8,02,04,01,42,00,75,34,04,
7271226,00000280,false,Rx,0,8,01,70,00,00,70,00,2B,00,
7271397,00000488,false,Rx,0,8,66,00,00,80,A6,00,00,40,
7273395,000001A0,false,Rx,0,8,00,43,00,00,FE,FE,00,1C,
7273649,000004A0,false,Rx,0,8,00,00,00,00,00,00,00,00,
7273895,000005A0,false,Rx,0,8,64,01,00,C8,05,00,00,30,
7275207,00000588,false,Rx,0,8,E9,07,80,00,63,00,00,00,
7280309,000001A0,false,Rx,0,8,00,43,00,00,FE,FE,00,1D,
7281170,00000288,false,Rx,0,8,75,53,00,00,00,56,00,00,
7282667,00000380,false,Rx,0,8,00,4E,00,09,00,00,00,00,
7285212,00000480,false,Rx,0,8,53,22,00,00,19,06,00,6E,
7285541,00000050,false,Rx,0,4,00,01,80,81,00,00,00,00,
7287378,000001A0,false,Rx,0,8,00,43,00,00,FE,FE,00,1E,
7287632,000004A0,false,Rx,0,8,00,00,00,00,00,00,00,00,
7287879,000005A0,false,Rx,0,8,64,01,00,76,13,00,00,30,
7291205,00000280,false,Rx,0,8,01,70,00,00,70,00,2B,00,
7291462,00000488,false,Rx,0,8,76,00,00,80,A6,00,00,50,
7292270,00000320,false,Rx,0,8,82,06,00,01,00,00,00,00,
7294459,000001A0,false,Rx,0,8,00,43,00,00,FE,FE,00,1F,
7295194,00000588,false,Rx,0,8,E9,07,80,00,63,00,00,00,
7301205,00000288,false,Rx,0,8,75,53,00,00,00,56,00,00,
7302798,000001A0,false,Rx,0,8,00,43,00,00,FE,FE,00,10,
7302827,00000380,false,Rx,0,8,00,4E,00,09,00,00,00,00,
7302845,000004A0,false,Rx,0,8,00,00,00,00,00,00,00,00,
7302861,000005A0,false,Rx,0,8,64,01,00,24,21,00,00,30,
7305200,00000480,false,Rx,0,8,53,22,00,00,19,06,00,6E,
7305606,00000050,false,Rx,0,4,00,01,90,91,00,00,00,00,
7308355,000001A0,false,Rx,0,8,00,43,00,00,FE,FE,00,11,
7311188,00000280,false,Rx,0,8,01,70,00,00,70,00,2B,00,
7311435,00000488,false,Rx,0,8,46,00,00,80,A6,00,00,60,
7315175,00000588,false,Rx,0,8,E9,07,80,00,63,00,00,00,
7315421,000001A0,false,Rx,0,8,00,43,00,00,FE,FE,00,12,
7315676,000004A0,false,Rx,0,8,00,00,00,00,00,00,00,00,
7315921,000005A0,false,Rx,0,8,64,01,00,D2,2E,00,00,30,
7316858,00000320,false,Rx,0,8,82,06,00,01,00,00,00,00,
7321205,00000288,false,Rx,0,8,75,53,00,00,00,56,00,00,
7322887,00000380,false,Rx,0,8,00,4E,00,09,00,00,00,00,
7322909,000001A0,false,Rx,0,8,00,43,00,00,FE,FE,00,13,
7325268,00000480,false,Rx,0,8,53,22,00,00,19,06,00,6E,
7325622,00000050,false,Rx,0,4,00,01,A0,A1,00,00,00,00,
7329355,000001A0,false,Rx,0,8,00,43,00,00,FE,FE,00,14,
7329612,000004A0,false,Rx,0,8,00,00,00,00,00,00,00,00,
7329858,000005A0,false,Rx,0,8,64,01,00,80,3C,00,00,30,
7331170,00000280,false,Rx,0,8,01,70,00,00,70,00,2B,00,
7331419,00000488,false,Rx,0,8,56,00,00,80,A6,00,00,70,
7335235,00000588,false,Rx,0,8,E9,08,80,00,63,00,00,00,
7336399,000001A0,false,Rx,0,8,00,43,00,00,FE,FE,00,15,
7340597,00000570,false,Rx,0,4,07,00,EB,00,00,00,00,00,
7341227,00000288,false,Rx,0,8,8F,53,00,00,00,56,00,00,
7342931,00000380,false,Rx,0,8,00,4E,00,09,00,00,00,00,
7342958,00000320,false,Rx,0,8,82,06,00,01,00,00,00,00,
7343405,000001A0,false,Rx,0,8,00,43,00,00,FE,FE,00,16,
7343660,000004A0,false,Rx,0,8,00,00,00,00,00,00,00,00,
7343906,000005A0,false,Rx,0,8,64,01,00,2E,4A,00,00,30,
7345219,00000480,false,Rx,0,8,A4,22,00,00,19,06,00,99,
7345699,00000050,false,Rx,0,4,00,01,B0,B1,00,00,00,00,
7350415,000001A0,false,Rx,0,8,00,43,00,00,FE,FE,00,17,
7351195,00000280,false,Rx,0,8,01,70,00,00,70,00,2B,00,
7351452,00000488,false,Rx,0,8,59,00,00,7F,A6,00,00,80,
7355227,00000588,false,Rx,0,8,E9,08,7F,00,63,00,00,00,
7357448,000001A0,false,Rx,0,8,00,43,00,00,FE,FE,00,18,
7357707,000004A0,false,Rx,0,8,00,00,00,00,00,00,00,00,
7357878,000005A0,false,Rx,0,8,64,01,00,DC,57,00,00,30,
7361230,00000288,false,Rx,0,8,8F,53,00,00,00,56,00,00,
7363023,00000380,false,Rx,0,8,00,4E,00,09,00,00,00,00,
7364439,000001A0,false,Rx,0,8,00,43,00,00,FE,FE,00,19,
7365182,00000480,false,Rx,0,8,A4,22,00,00,19,06,00,99,
7365591,00000050,false,Rx,0,4,00,01,C0,C1,00,00,00,00,
7367200,00000320,false,Rx,0,8,82,06,00,01,00,00,00,00,
7367535,000005D8,false,Rx,0,8,15,04,00,03,01,00,00,00,
7367856,000005D0,false,Rx,0,6,80,47,51,30,24,41,00,00,
7371208,00000280,false,Rx,0,8,01,70,00,00,70,00,2B,00,
7371459,000001A0,false,Rx,0,8,00,43,00,00,FE,FE,00,1A,
7371638,00000488,false,Rx,0,8,49,00,00,7F,A6,00,00,90,
7371884,000004A0,false,Rx,0,8,00,00,00,00,00,00,00,00,
7372133,000005A0,false,Rx,0,8,64,01,00,8A,65,00,00,30,
7375190,00000588,false,Rx,0,8,E9,08,7F,00,63,00,00,00,
7378472,000001A0,false,Rx,0,8,00,43,00,00,FE,FE,00,1B,
7381155,00000288,false,Rx,0,8,8F,53,00,00,00,56,00,00,
7381406,00000380,false,Rx,0,8,00,4E,00,09,00,00,00,00,
7385251,00000480,false,Rx,0,8,A4,22,00,00,19,06,00,99,
7385438,000001A0,false,Rx,0,8,00,43,00,00,FE,FE,00,1C,
7385693,000004A0,false,Rx,0,8,00,00,00,00,00,00,00,00,
7385864,00000050,false,Rx,0,4,00,01,D0,D1,00,00,00,00,
7386117,000005A0,false,Rx,0,8,64,01,00,38,73,00,00,30,
7391219,00000280,false,Rx,0,8,01,70,00,00,70,00,2B,00,
7391396,00000488,false,Rx,0,8,86,00,00,80,A6,00,00,A0,
7392028,00000320,false,Rx,0,8,82,06,00,01,00,00,00,00,
7392512,000001A0,false,Rx,0,8,00,43,00,00,FE,FE,00,1D,
7395182,00000588,false,Rx,0,8,E9,08,80,00,63,00,00,00,
7399373,000001A0,false,Rx,0,8,00,43,00,00,FE,FE,00,1E,
7399632,000004A0,false,Rx,0,8,00,00,00,00,00,00,00,00,
7399878,000005A0,false,Rx,0,8,64,01,00,E6,80,00,00,30,
7401338,00000288,false,Rx,0,8,8F,53,00,00,00,56,00,00,
7403076,00000380,false,Rx,0,8,00,4E,00,09,00,00,00,00,
7405262,00000480,false,Rx,0,8,A4,22,00,00,19,06,00,99,
7405705,00000050,false,Rx,0,4,00,01,E0,E1,00,00,00,00,
7406407,000001A0,false,Rx,0,8,00,43,00,00,FE,FE,00,1F,
7411208,00000280,false,Rx,0,8,01,70,00,00,70,00,2B,00,
7411457,00000488,false,Rx,0,8,96,00,00,80,A6,00,00,B0,
7413450,000001A0,false,Rx,0,8,00,43,00,00,FE,FE,00,10,
7413707,000004A0,false,Rx,0,8,00,00,00,00,00,00,00,00,
7413953,000005A0,false,Rx,0,8,64,01,00,94,8E,00,00,30,
7415190,00000588,false,Rx,0,8,E9,08,80,00,63,00,00,00,
7416737,00000320,false,Rx,0,8,82,06,00,01,00,00,00,00,
7417063,00000420,false,Rx,0,8,06,78,78,44,00,00,FF,00,
7420415,000001A0,false,Rx,0,8,00,43,00,00,FE,FE,00,11,
7421202,00000288,false,Rx,0,8,DE,53,00,00,00,56,00,00,
7421451,00000380,false,Rx,0,8,00,4E,00,09,00,00,00,00,
7425211,00000480,false,Rx,0,8,ED,22,00,00,19,06,00,D0,
7425710,00000050,false,Rx,0,4,00,01,F0,F1,00,00,00,00,
7427470,000001A0,false,Rx,0,8,00,43,00,00,FE,FE,00,12,
7427729,000004A0,false,Rx,0,8,00,00,00,00,00,00,00,00,
7427976,000005A0,false,Rx,0,8,64,01,00,42,9C,00,00,30,
7431183,00000280,false,Rx,0,8,01,70,00,00,70,00,2B,00,
7431434,00000488,false,Rx,0,8,E6,00,00,80,A6,00,00,C0,
7434459,000001A0,false,Rx,0,8,00,43,00,00,FE,FE,00,13,
7435171,00000588,false,Rx,0,8,E9,08,80,00,63,00,00,00,
7440580,00000570,false,Rx,0,4,07,00,EB,00,00,00,00,00,
7441208,00000288,false,Rx,0,8,DE,53,00,00,00,56,00,00,
7441458,000001A0,false,Rx,0,8,00,43,00,00,FE,FE,00,14,
7443131,00000380,false,Rx,0,8,00,4E,00,09,00,00,00,00,
7443156,000004A0,false,Rx,0,8,00,00,00,00,00,00,00,00,
7443172,00000320,false,Rx,0,8,82,06,00,01,00,00,00,00,
7443188,000005A0,false,Rx,0,8,64,01,00,F0,A9,00,00,30,
7445220,00000480,false,Rx,0,8,ED,22,00,00,19,06,00,D0,
7445735,00000050,false,Rx,0,4,00,01,00,01,00,00,00,00,
7448483,000001A0,false,Rx,0,8,00,43,00,00,FE,FE,00,15,
7451312,00000280,false,Rx,0,8,01,70,00,00,70,00,2B,00,
7451566,00000488,false,Rx,0,8,09,00,00,7F,A6,00,00,D0,
7455212,00000588,false,Rx,0,8,E9,09,7F,00,63,00,00,00,
7455499,000001A0,false,Rx,0,8,00,43,00,00,FE,FE,00,16,
7455744,000004A0,false,Rx,0,8,00,00,00,00,00,00,00,00,
7455991,000005A0,false,Rx,0,8,64,01,00,9E,B7,00,00,30,
7461160,00000288,false,Rx,0,8,DE,53,00,00,00,56,00,00,
7461411,00000380,false,Rx,0,8,00,4E,00,09,00,00,00,00,
7463105,000001A0,false,Rx,0,8,00,43,00,00,FE,FE,00,17,
7465226,00000480,false,Rx,0,8,ED,22,00,00,19,06,00,D0,
7465712,00000050,false,Rx,0,4,00,01,10,11,00,00,00,00,
7467096,00000320,false,Rx,0,8,82,06,00,01,00,00,00,00,
7467347,00000580,false,Rx,0,8,01,00,00,7C,5A,A0,28,FF,
7467601,000005D8,false,Rx,0,8,15,04,00,03,01,00,00,00,
7467922,000005D0,false,Rx,0,6,80,47,51,30,24,41,00,00,
7468247,00000520,false,Rx,0,8,51,67,01,42,00,75,34,04,
7469485,000001A0,false,Rx,0,8,00,43,00,00,FE,FE,00,18,
7469743,000004A0,false,Rx,0,8,00,00,00,00,00,00,00,00,
7469989,000005A0,false,Rx,0,8,64,01,00,4C,C5,00,00,30,
7471177,00000280,false,Rx,0,8,01,70,00,00,70,00,2B,00,
7471429,00000488,false,Rx,0,8,C6,00,00,80,A6,00,00,E0,
7475168,00000588,false,Rx,0,8,E9,09,80,00,63,00,00,00,
7476483,000001A0,false,Rx,0,8,00,43,00,00,FE,FE,00,19,
7481212,00000288,false,Rx,0,8,DE,53,00,00,00,56,00,00,
7481463,00000380,false,Rx,0,8,00,4E,00,09,00,00,00,00,
7483537,000001A0,false,Rx,0,8,00,43,00,00,FE,FE,00,1A,
7483700,000004A0,false,Rx,0,8,00,00,00,00,00,00,00,00,
7484029,000005A0,false,Rx,0,8,64,01,00,FA,D2,00,00,30,
7485244,00000480,false,Rx,0,8,ED,20,00,00,19,06,00,D2,
7485732,00000050,false,Rx,0,4,00,01,20,21,00,00,00,00,
7490444,000001A0,false,Rx,0,8,00,43,00,00,FE,FE,00,1B,
7491155,00000280,false,Rx,0,8,01,70,00,00,70,00,2B,00,
7491406,00000488,false,Rx,0,8,D6,00,00,80,A6,00,00,F0,
7492648,00000320,false,Rx,0,8,02,06,00,01,00,00,00,00,
7495173,00000588,false,Rx,0,8,E9,09,80,00,63,00,00,00,
7497551,000001A0,false,Rx,0,8,00,43,00,00,FE,FE,00,1C,
7497802,000004A0,false,Rx,0,8,00,00,00,00,00,00,00,00,
7498053,000005A0,false,Rx,0,8,64,01,00,A8,E0,00,00,30,
7501334,00000288,false,Rx,0,8,0C,53,00,00,00,56,00,00,
7501594,00000380,false,Rx,0,8,00,4E,00,09,00,00,00,00,
7504533,000001A0,false,Rx,0,8,00,43,00,00,FE,FE,00,1D,
7505172,00000480,false,Rx,0,8,19,20,00,00,19,06,00,26,
7505732,00000050,false,Rx,0,4,00,01,30,31,00,00,00,00,
7511207,00000280,false,Rx,0,8,01,70,00,00,70,00,2B,00,
7511458,00000488,false,Rx,0,8,26,00,00,80,A6,00,00,00,
7511638,000001A0,false,Rx,0,8,00,43,00,00,FE,FE,00,1E,
7511883,000004A0,false,Rx,0,8,00,00,00,00,00,00,00,00,
7512133,000005A0,false,Rx,0,8,64,01,00,56,EE,00,00,30,
7515190,00000588,false,Rx,0,8,E9,09,80,00,63,00,00,00,
7516960,00000320,false,Rx,0,8,02,06,00,01,00,00,00,00,
7518585,000001A0,false,Rx,0,8,00,43,00,00,FE,FE,00,1F,
7521184,00000288,false,Rx,0,8,0C,53,00,00,00,56,00,00,
7521436,00000380,false,Rx,0,8,00,4E,00,09,00,00,00,00,
7525233,00000480,false,Rx,0,8,19,20,00,00,19,06,00,26,
7525434,000001A0,false,Rx,0,8,00,43,00,00,FE,FE,00,10,
7525688,000004A0,false,Rx,0,8,00,00,00,00,00,00,00,00,
7525859,00000050,false,Rx,0,4,00,01,40,41,00,00,00,00,
7526115,000005A0,false,Rx,0,8,64,01,00,04,FC,00,00,30,
7531144,00000280,false,Rx,0,8,01,70,00,00,70,00,2B,00,
7531393,00000488,false,Rx,0,8,36,00,00,80,A6,00,00,10,
7532562,000001A0,false,Rx,0,8,00,43,00,00,FE,FE,00,11,
7535162,00000588,false,Rx,0,8,E9,09,80,00,63,00,00,00,
7539430,000001A0,false,Rx,0,8,00,43,00,00,FE,FE,00,12,
7539686,000004A0,false,Rx,0,8,00,00,00,00,00,00,00,00,
7539932,000005A0,false,Rx,0,8,64,01,00,B2,09,00,00,30,
7540718,00000570,false,Rx,0,4,07,00,EB,00,00,00,00,00,
7541199,00000288,false,Rx,0,8,0C,53,00,00,00,56,00,00,
7541448,00000380,false,Rx,0,8,00,4E,00,09,00,00,00,00,
7543714,00000320,false,Rx,0,8,02,06,00,01,00,00,00,00,
7545222,00000480,false,Rx,0,8,19,20,00,00,19,06,00,26,
7545797,00000050,false,Rx,0,4,00,01,50,51,00,00,00,00,
7546582,000001A0,false,Rx,0,8,00,43,00,00,FE,FE,00,13,
7551301,00000280,false,Rx,0,8,01,70,00,00,70,00,2B,00,
7551556,00000488,false,Rx,0,8,06,00,00,80,A6,00,00,20,
7553550,000001A0,false,Rx,0,8,00,43,00,00,FE,FE,00,14,
7553796,000004A0,false,Rx,0,8,00,00,00,00,00,00,00,00,
7554044,000005A0,false,Rx,0,8,64,01,00,60,17,00,00,30,
7555309,00000588,false,Rx,0,8,E9,09,80,00,63,00,00,00,
7560403,000001A0,false,Rx,0,8,00,43,00,00,FE,FE,00,15,
7561209,00000288,false,Rx,0,8,0C,53,00,00,00,56,00,00,
7561463,00000380,false,Rx,0,8,00,4E,00,09,00,00,00,00,
7565274,00000480,false,Rx,0,8,19,20,00,00,19,06,00,26,
7565836,00000050,false,Rx,0,4,00,01,60,61,00,00,00,00,
7567469,00000320,false,Rx,0,8,02,06,00,01,00,00,00,00,
7567696,000001A0,false,Rx,0,8,00,43,00,00,FE,FE,00,16,
7567822,000004A0,false,Rx,0,8,00,00,00,00,00,00,00,00,
7568075,000005A0,false,Rx,0,8,64,01,00,0E,25,00,00,30,
7568326,000005D8,false,Rx,0,8,15,04,00,03,01,00,00,00,
7568580,000005D0,false,Rx,0,6,80,47,51,30,24,41,00,00,
7571175,00000280,false,Rx,0,8,01,70,00,00,70,00,2B,00,
7571426,00000488,false,Rx,0,8,16,00,00,80,A6,00,00,30,
7574557,000001A0,false,Rx,0,8,00,43,00,00,FE,FE,00,17,
7575188,00000588,false,Rx,0,8,E9,09,80,00,63,00,00,00,
7581161,00000288,false,Rx,0,8,75,53,00,00,00,56,00,00,
7581412,00000380,false,Rx,0,8,00,4E,00,09,00,00,00,00,
7581666,000001A0,false,Rx,0,8,00,43,00,00,FE,FE,00,18,
7583391,000004A0,false,Rx,0,8,00,00,00,00,00,00,00,00,
7583422,000005A0,false,Rx,0,8,64,01,00,BC,32,00,00,30,
7585222,00000480,false,Rx,0,8,53,20,00,00,19,06,00,6C,
7585850,00000050,false,Rx,0,4,00,01,70,71,00,00,00,00,
7588530,000001A0,false,Rx,0,8,00,43,00,00,FE,FE,00,19,
7591205,00000280,false,Rx,0,8,01,70,00,00,70,00,2B,00,
7591451,00000488,false,Rx,0,8,66,00,00,80,A6,00,00,40,
7591856,00000320,false,Rx,0,8,02,06,00,01,00,00,00,00,
7595214,00000588,false,Rx,0,8,E9,0A,80,00,63,00,00,00,
7595617,000001A0,false,Rx,0,8,00,43,00,00,FE,FE,00,1A,
7595863,000004A0,false,Rx,0,8,00,00,00,00,00,00,00,00,
7596118,000005A0,false,Rx,0,8,64,01,00,6A,40,00,00,30,
7601294,00000288,false,Rx,0,8,75,53,00,00,00,56,00,00,
7601547,00000380,false,Rx,0,8,00,4E,00,09,00,00,00,00,
7603432,000001A0,false,Rx,0,8,00,43,00,00,FE,FE,00,1B,
7605201,00000480,false,Rx,0,8,53,20,00,00,19,06,00,6C,
7605861,00000050,false,Rx,0,4,00,01,80,81,00,00,00,00,
7609522,000001A0,false,Rx,0,8,00,43,00,00,FE,FE,00,1C,
7609772,000004A0,false,Rx,0,8,00,00,00,00,00,00,00,00,
7610021,000005A0,false,Rx,0,8,64,01,00,18,4E,00,00,30,
7611180,00000280,false,Rx,0,8,01,70,00,00,70,00,2B,00,
7611430,00000488,false,Rx,0,8,76,00,00,80,A6,00,00,50,
7615165,00000588,false,Rx,0,8,E9,0A,80,00,63,00,00,00,
7616561,000001A0,false,Rx,0,8,00,43,00,00,FE,FE,00,1D,
7616812,00000320,false,Rx,0,8,02,06,00,01,00,00,00,00,
7617138,00000420,false,Rx,0,8,06,78,78,44,00,00,FF,00,
7621182,00000288,false,Rx,0,8,75,53,00,00,00,56,00,00,
7621432,00000380,false,Rx,0,8,00,4E,00,09,00,00,00,00,
7623624,000001A0,false,Rx,0,8,00,43,00,00,FE,FE,00,1E,
7623841,000004A0,false,Rx,0,8,00,00,00,00,00,00,00,00,
7624016,000005A0,false,Rx,0,8,64,01,00,C6,5B,00,00,30,
7625211,00000480,false,Rx,0,8,53,20,00,00,19,06,00,6C,
7625855,00000050,false,Rx,0,4,00,01,90,91,00,00,00,00,
7630585,000001A0,false,Rx,0,8,00,43,00,00,FE,FE,00,1F,
7631163,00000280,false,Rx,0,8,01,70,00,00,70,00,2B,00,
7631413,00000488,false,Rx,0,8,46,00,00,80,A6,00,00,60,
7635150,00000588,false,Rx,0,8,E9,0A,80,00,63,00,00,00,
7637603,000001A0,false,Rx,0,8,00,43,00,00,FE,FE,00,10,
7637854,000004A0,false,Rx,0,8,00,00,00,00,00,00,00,00,
7638105,000005A0,false,Rx,0,8,64,01,00,74,69,00,00,30,
7640783,00000570,false,Rx,0,4,07,00,EB,00,00,00,00,00,
7641187,00000288,false,Rx,0,8,75,53,00,00,00,56,00,00,
7641438,00000380,false,Rx,0,8,00,4E,00,09,00,00,00,00,
7643479,00000320,false,Rx,0,8,02,06,00,01,00,00,00,00,
7644638,000001A0,false,Rx,0,8,00,43,00,00,FE,FE,00,11,
7645163,00000480,false,Rx,0,8,53,20,00,00,19,06,00,6C,
7645871,00000050,false,Rx,0,4,00,01,A0,A1,00,00,00,00,
7651272,00000280,false,Rx,0,8,01,70,00,00,70,00,2B,00,
7651530,00000488,false,Rx,0,8,56,00,00,80,A6,00,00,70,
7651702,000001A0,false,Rx,0,8,00,43,00,00,FE,FE,00,12,
7652028,000004A0,false,Rx,0,8,00,00,00,00,00,00,00,00,
7652204,000005A0,false,Rx,0,8,64,01,00,22,77,00,00,30,
7655183,00000588,false,Rx,0,8,E9,0A,80,00,63,00,00,00,
7658667,000001A0,false,Rx,0,8,00,43,00,00,FE,FE,00,13,
7661252,00000288,false,Rx,0,8,8F,53,00,00,00,56,00,00,
7661445,00000380,false,Rx,0,8,00,4E,00,09,00,00,00,00,
7665204,00000480,false,Rx,0,8,A4,20,00,00,19,06,00,9B,
7665538,000001A0,false,Rx,0,8,00,43,00,00,FE,FE,00,14,
7665784,000004A0,false,Rx,0,8,00,00,00,00,00,00,00,00,
7665955,00000050,false,Rx,0,4,00,01,B0,B1,00,00,00,00,
7666211,000005A0,false,Rx,0,8,64,01,00,D0,84,00,00,30,
7667225,00000320,false,Rx,0,8,02,06,00,01,00,00,00,00,
7667553,000005D8,false,Rx,0,8,15,04,00,03,01,00,00,00,
7667800,000005D0,false,Rx,0,6,80,47,51,30,24,41,00,00,
7668125,00000520,false,Rx,0,8,0C,88,01,42,00,75,34,04,
7671212,00000280,false,Rx,0,8,01,70,00,00,70,00,2B,00,
7671390,00000488,false,Rx,0,8,59,00,00,7F,A6,00,00,80,
7672706,000001A0,false,Rx,0,8,00,43,00,00,FE,FE,00,15,
7675155,00000588,false,Rx,0,8,E9,0A,7F,00,63,00,00,00,
7679504,000001A0,false,Rx,0,8,00,43,00,00,FE,FE,00,16,
7679755,000004A0,false,Rx,0,8,00,00,00,00,00,00,00,00,
7680002,000005A0,false,Rx,0,8,64,01,00,7E,92,00,00,30,
7681158,00000288,false,Rx,0,8,8F,53,00,00,00,56,00,00,
7681409,00000380,false,Rx,0,8,00,4E,00,09,00,00,00,00,
7685211,00000480,false,Rx,0,8,A4,20,00,00,19,06,00,9B,
7685948,00000050,false,Rx,0,4,00,01,C0,C1,00,00,00,00,
7686657,000001A0,false,Rx,0,8,00,43,00,00,FE,FE,00,17,
7691153,00000280,false,Rx,0,8,01,70,00,00,70,00,2B,00,
7691404,00000488,false,Rx,0,8,49,00,00,7F,A6,00,00,90,
7692112,00000320,false,Rx,0,8,02,06,00,01,00,00,00,00,
7693657,000001A0,false,Rx,0,8,00,43,00,00,FE,FE,00,18,
7693907,000004A0,false,Rx,0,8,00,00,00,00,00,00,00,00,
7694156,000005A0,false,Rx,0,8,64,01,00,2C,A0,00,00,30,
7695169,00000588,false,Rx,0,8,E9,0A,7F,00,63,00,00,00,
7700505,000001A0,false,Rx,0,8,00,43,00,00,FE,FE,00,19,
7701283,00000288,false,Rx,0,8,8F,53,00,00,00,56,00,00,
7701541,00000380,false,Rx,0,8,00,4E,00,09,00,00,00,00,
7705212,00000480,false,Rx,0,8,A4,20,00,00,19,06,00,9B,
7705931,00000050,false,Rx,0,4,00,01,D0,D1,00,00,00,00,
7707625,000001A0,false,Rx,0,8,00,43,00,00,FE,FE,00,1A,
7707877,000004A0,false,Rx,0,8,00,00,00,00,00,00,00,00,
7708127,000005A0,false,Rx,0,8,64,01,00,DA,AD,00,00,30,
7711185,00000280,false,Rx,0,8,01,70,00,00,70,00,2B,00,
7711436,00000488,false,Rx,0,8,86,00,00,80,A6,00,00,A0,
7714648,000001A0,false,Rx,0,8,00,43,00,00,FE,FE,00,1B,
7715202,00000588,false,Rx,0,8,E9,0B,80,00,63,00,00,00,
7716597,00000320,false,Rx,0,8,02,06,00,01,00,00,00,00,
7721198,00000288,false,Rx,0,8,8F,53,00,00,00,56,00,00,
7721449,00000380,false,Rx,0,8,00,4E,00,09,00,00,00,00,
7721703,000001A0,false,Rx,0,8,00,43,00,00,FE,FE,00,1C,
7721949,000004A0,false,Rx,0,8,00,00,00,00,00,00,00,00,
7723637,000005A0,false,Rx,0,8,64,01,00,88,BB,00,00,30,
7725149,00000480,false,Rx,0,8,A4,20,00,00,19,06,00,9B,
7726007,00000050,false,Rx,0,4,00,01,E0,E1,00,00,00,00,
7728782,000001A0,false,Rx,0,8,00,43,00,00,FE,FE,00,1D,
7731216,00000280,false,Rx,0,8,01,70,00,00,70,00,2B,00,
7731416,00000488,false,Rx,0,8,96,00,00,80,A6,00,00,B0,
7735155,00000588,false,Rx,0,8,E9,0B,80,00,63,00,00,00,
7735640,000001A0,false,Rx,0,8,00,43,00,00,FE,FE,00,1E,
7735886,000004A0,false,Rx,0,8,00,00,00,00,00,00,00,00,
7736137,000005A0,false,Rx,0,8,64,01,00,36,C9,00,00,30,
7741165,00000288,false,Rx,0,8,DE,53,00,00,00,56,00,00,
7741416,00000380,false,Rx,0,8,00,4E,00,09,00,00,00,00,
7741595,00000570,false,Rx,0,4,07,00,EB,00,00,00,00,00,
7743561,000001A0,false,Rx,0,8,00,43,00,00,FE,FE,00,1F,
7743583,00000320,false,Rx,0,8,02,06,00,01,00,00,00,00,
7745168,00000480,false,Rx,0,8,ED,20,00,00,19,06,00,D2,
7746033,00000050,false,Rx,0,4,00,01,F0,F1,00,00,00,00,
7749622,000001A0,false,Rx,0,8,00,43,00,00,FE,FE,00,10,
7749874,000004A0,false,Rx,0,8,00,00,00,00,00,00,00,00,
7750125,000005A0,false,Rx,0,8,64,01,00,E4,D6,00,00,30,
7751212,00000280,false,Rx,0,8,01,70,00,00,70,00,2B,00,
7751464,00000488,false,Rx,0,8,E6,00,00,80,A6,00,00,C0,
7755200,00000588,false,Rx,0,8,E9,0B,80,00,63,00,00,00,
7756670,000001A0,false,Rx,0,8,00,43,00,00,FE,FE,00,11,
7761233,00000288,false,Rx,0,8,DE,53,00,00,00,56,00,00,
7761422,00000380,false,Rx,0,8,00,4E,00,09,00,00,00,00,
7763817,000001A0,false,Rx,0,8,00,43,00,00,FE,FE,00,12,
7763840,000004A0,false,Rx,0,8,00,00,00,00,00,00,00,00,
7764111,000005A0,false,Rx,0,8,64,01,00,92,E4,00,00,30,
7765200,00000480,false,Rx,0,8,ED,20,00,00,19,06,00,D2,
7765978,00000050,false,Rx,0,4,00,01,00,01,00,00,00,00,
7767217,00000320,false,Rx,0,8,02,06,00,01,00,00,00,00,
7767546,000005D8,false,Rx,0,8,15,04,00,03,01,00,00,00,
7767792,000005D0,false,Rx,0,6,80,47,51,30,24,41,00,00,
7770620,000001A0,false,Rx,0,8,00,43,00,00,FE,FE,00,13,
7771183,00000280,false,Rx,0,8,01,70,00,00,70,00,2B,00,
7771432,00000488,false,Rx,0,8,F6,00,00,80,A6,00,00,D0,
7775190,00000588,false,Rx,0,8,E9,0B,80,00,63,00,00,00,
7777677,000001A0,false,Rx,0,8,00,43,00,00,FE,FE,00,14,
7777929,000004A0,false,Rx,0,8,00,00,00,00,00,00,00,00,
7778180,000005A0,false,Rx,0,8,64,01,00,40,F2,00,00,30,
7781160,00000288,false,Rx,0,8,DE,53,00,00,00,56,00,00,
7781411,00000380,false,Rx,0,8,00,4E,00,09,00,00,00,00,
7784616,000001A0,false,Rx,0,8,00,43,00,00,FE,FE,00,15,
7785196,00000480,false,Rx,0,8,ED,20,00,00,19,06,00,D2,
7786051,00000050,false,Rx,0,4,00,01,10,11,00,00,00,00,
7791155,00000280,false,Rx,0,8,01,70,00,00,70,00,2B,00,
7791401,00000488,false,Rx,0,8,C6,00,00,80,A6,00,00,E0,
7791655,000001A0,false,Rx,0,8,00,43,00,00,FE,FE,00,16,
7791900,00000320,false,Rx,0,8,02,06,00,01,00,00,00,00,
7792156,000004A0,false,Rx,0,8,00,00,00,00,00,00,00,00,
7792402,000005A0,false,Rx,0,8,64,01,00,EE,FF,00,00,30,
7795193,00000588,false,Rx,0,8,E9,0B,80,00,63,00,00,00,
7798723,000001A0,false,Rx,0,8,00,43,00,00,FE,FE,00,17,
7801171,00000288,false,Rx,0,8,DE,53,00,00,00,56,00,00,
7801416,00000380,false,Rx,0,8,00,4E,00,09,00,00,00,00,
7805188,00000480,false,Rx,0,8,ED,20,00,00,19,06,00,D2,
7805611,000001A0,false,Rx,0,8,00,43,00,00,FE,FE,00,18,
7805858,000004A0,false,Rx,0,8,00,00,00,00,00,00,00,00,
7806034,00000050,false,Rx,0,4,00,01,20,21,00,00,00,00,
7806288,000005A0,false,Rx,0,8,64,01,00,9C,0D,00,00,30,
7811160,00000280,false,Rx,0,8,01,70,00,00,70,00,2B,00,
7811411,00000488,false,Rx,0,8,D6,00,00,80,A6,00,00,F0,
7812728,000001A0,false,Rx,0,8,00,43,00,00,FE,FE,00,19,
7815174,00000588,false,Rx,0,8,E9,0B,80,00,63,00,00,00,
7816570,00000320,false,Rx,0,8,02,06,00,01,00,00,00,00,
7816897,00000420,false,Rx,0,8,06,78,79,44,00,00,FF,00,
7819648,000001A0,false,Rx,0,8,00,43,00,00,FE,FE,00,1A,
7819899,000004A0,false,Rx,0,8,00,00,00,00,00,00,00,00,
7820076,000005A0,false,Rx,0,8,64,01,00,4A,1B,00,00,30,
7821162,00000288,false,Rx,0,8,0C,53,00,00,00,56,00,00,
7821413,00000380,false,Rx,0,8,00,4E,00,09,00,00,00,00,
7825332,00000480,false,Rx,0,8,19,20,00,00,19,06,00,26,
7826090,00000050,false,Rx,0,4,00,01,30,31,00,00,00,00,
7826653,000001A0,false,Rx,0,8,00,43,00,00,FE,FE,00,1B,
7831139,00000280,false,Rx,0,8,01,70,00,00,70,00,2B,00,
7831390,00000488,false,Rx,0,8,26,00,00,80,A6,00,00,00,
7833688,000001A0,false,Rx,0,8,00,43,00,00,FE,FE,00,1C,
7833939,000004A0,false,Rx,0,8,00,00,00,00,00,00,00,00,
7834190,000005A0,false,Rx,0,8,64,01,00,F8,28,00,00,30,
7835202,00000588,false,Rx,0,8,E9,0B,80,00,63,00,00,00,
7840613,000001A0,false,Rx,0,8,00,43,00,00,FE,FE,00,1D,
7840790,00000570,false,Rx,0,4,07,00,EB,00,00,00,00,00,
7841190,00000288,false,Rx,0,8,0C,53,00,00,00,56,00,00,
7841441,00000380,false,Rx,0,8,00,4E,00,09,00,00,00,00,
7842149,00000320,false,Rx,0,8,02,06,00,01,00,00,00,00,
7845230,00000480,false,Rx,0,8,19,20,00,00,19,06,00,26,
7846105,00000050,false,Rx,0,4,00,01,40,41,00,00,00,00,
7847724,000001A0,false,Rx,0,8,00,43,00,00,FE,FE,00,1E,
7847975,000004A0,false,Rx,0,8,00,00,00,00,00,00,00,00,
7848226,000005A0,false,Rx,0,8,64,01,00,A6,36,00,00,30,
7851207,00000280,false,Rx,0,8,01,70,00,00,70,00,2B,00,
7851384,00000488,false,Rx,0,8,36,00,00,80,A6,00,00,10,
7854741,000001A0,false,Rx,0,8,00,43,00,00,FE,FE,00,1F,
7855145,00000588,false,Rx,0,8,E9,0C,80,00,63,00,00,00,
7861155,00000288,false,Rx,0,8,0C,53,00,00,00,56,00,00,
7861407,00000380,false,Rx,0,8,00,4E,00,09,00,00,00,00,
7861661,000001A0,false,Rx,0,8,00,43,00,00,FE,FE,00,10,
7861906,000004A0,false,Rx,0,8,00,00,00,00,00,00,00,00,
7862155,000005A0,false,Rx,0,8,64,01,00,54,44,00,00,30,
7865218,00000480,false,Rx,0,8,19,20,00,00,19,06,00,26,
7866214,00000050,false,Rx,0,4,00,01,50,51,00,00,00,00,
7867248,00000320,false,Rx,0,8,02,06,00,01,00,00,00,00,
7867578,000005D8,false,Rx,0,8,15,04,00,03,01,00,00,00,
7867824,000005D0,false,Rx,0,6,80,47,51,30,24,41,00,00,
7868155,00000520,false,Rx,0,8,15,C0,01,42,00,75,34,04,
7868785,000001A0,false,Rx,0,8,00,43,00,00,FE,FE,00,11,
7871160,00000280,false,Rx,0,8,01,70,00,00,70,00,2B,00,
7871407,00000488,false,Rx,0,8,06,00,00,80,A6,00,00,20,
7875148,00000588,false,Rx,0,8,E9,0C,80,00,63,00,00,00,
7875778,000001A0,false,Rx,0,8,00,43,00,00,FE,FE,00,12,
7876029,000004A0,false,Rx,0,8,00,00,00,00,00,00,00,00,
7876205,000005A0,false,Rx,0,8,64,01,00,02,52,00,00,30,
7881155,00000288,false,Rx,0,8,0C,53,00,00,00,56,00,00,
7881403,00000380,false,Rx,0,8,00,4E,00,09,00,00,00,00,
7895177,00001000,true,Rx,0,8,00,00,02,F2,00,01,0D,42,
7896630,00001001,true,Rx,0,8,00,00,00,00,00,00,00,00,
7883894,000001A0,false,Rx,0,8,00,43,00,00,FE,FE,00,13,
7885157,00000480,false,Rx,0,8,19,20,00,00,19,06,00,26,
7886099,00000050,false,Rx,0,4,00,01,60,61,00,00,00,00,
7889688,000001A0,false,Rx,0,8,00,43,00,00,FE,FE,00,14,
7889936,000004A0,false,Rx,0,8,00,00,00,00,00,00,00,00,
7890190,000005A0,false,Rx,0,8,64,01,00,B0,5F,00,00,30,
7891203,00000280,false,Rx,0,8,01,70,00,00,70,00,2B,00,
7891376,00000488,false,Rx,0,8,16,00,00,80,A6,00,00,30,
7892007,00000320,false,Rx,0,8,02,06,00,01,00,00,00,00,
7898049,00000588,false,Rx,0,8,E9,0C,80,00,63,00,00,00,
7898071,000001A0,false,Rx,0,8,00,43,00,00,FE,FE,00,15,
7901228,00000288,false,Rx,0,8,75,53,00,00,00,56,00,00,
7901420,00000380,false,Rx,0,8,00,4E,00,09,00,00,00,00,
7903935,000001A0,false,Rx,0,8,00,43,00,00,FE,FE,00,16,
7903962,000004A0,false,Rx,0,8,00,00,00,00,00,00,00,00,
7904203,000005A0,false,Rx,0,8,64,01,00,5E,6D,00,00,30,
7905204,00000480,false,Rx,0,8,53,20,00,00,19,06,00,6C,
7906122,00000050,false,Rx,0,4,00,01,70,71,00,00,00,00,
7910692,000001A0,false,Rx,0,8,00,43,00,00,FE,FE,00,17,
7911173,00000280,false,Rx,0,8,01,70,00,00,70,00,2B,00,
7911424,00000488,false,Rx,0,8,66,00,00,80,A6,00,00,40,
7915160,00000588,false,Rx,0,8,E9,0C,80,00,63,00,00,00,
7916706,00000320,false,Rx,0,8,02,06,00,01,00,00,00,00,
7917793,000001A0,false,Rx,0,8,00,43,00,00,FE,FE,00,18,
7918047,000004A0,false,Rx,0,8,00,00,00,00,00,00,00,00,
7918299,000005A0,false,Rx,0,8,64,01,00,0C,7B,00,00,30,
7921200,00000288,false,Rx,0,8,75,53,00,00,00,56,00,00,
7921451,00000380,false,Rx,0,8,00,4E,00,09,00,00,00,00,
7924743,000001A0,false,Rx,0,8,00,43,00,00,FE,FE,00,19,
7925163,00000480,false,Rx,0,8,53,20,00,00,19,06,00,6C,
7926175,00000050,false,Rx,0,4,00,01,80,81,00,00,00,00,
7931200,00000280,false,Rx,0,8,01,70,00,00,70,00,2B,00,
7931376,00000488,false,Rx,0,8,76,00,00,80,A6,00,00,50,
7931705,000001A0,false,Rx,0,8,00,43,00,00,FE,FE,00,1A,
7931950,000004A0,false,Rx,0,8,00,00,00,00,00,00,00,00,
7932200,000005A0,false,Rx,0,8,64,01,00,BA,88,00,00,30,
7935183,00000588,false,Rx,0,8,E9,0C,80,00,63,00,00,00,
7938772,000001A0,false,Rx,0,8,00,43,00,00,FE,FE,00,1B,
7940620,00000570,false,Rx,0,4,07,00,EB,00,00,00,00,00,
7941175,00000288,false,Rx,0,8,75,53,00,00,00,56,00,00,
7941425,00000380,false,Rx,0,8,00,4E,00,09,00,00,00,00,
7941978,00000320,false,Rx,0,8,02,06,00,01,00,00,00,00,
7945303,00000480,false,Rx,0,8,53,20,00,00,19,06,00,6C,
7945755,000001A0,false,Rx,0,8,00,43,00,00,FE,FE,00,1C,
7946001,000004A0,false,Rx,0,8,00,00,00,00,00,00,00,00,
7946179,000005A0,false,Rx,0,8,64,01,00,68,96,00,00,30,
7946351,00000050,false,Rx,0,4,00,01,90,91,00,00,00,00,
7951150,00000280,false,Rx,0,8,01,70,00,00,70,00,2B,00,
7951396,00000488,false,Rx,0,8,46,00,00,80,A6,00,00,60,
7952790,000001A0,false,Rx,0,8,00,43,00,00,FE,FE,00,1D,
7955163,00000588,false,Rx,0,8,E9,0C,80,00,63,00,00,00,
7959662,000001A0,false,Rx,0,8,00,43,00,00,FE,FE,00,1E,
7959908,000004A0,false,Rx,0,8,00,00,00,00,00,00,00,00,
7960165,000005A0,false,Rx,0,8,64,01,00,16,A4,00,00,30,
7961178,00000288,false,Rx,0,8,75,53,00,00,00,56,00,00,
7961424,00000380,false,Rx,0,8,00,4E,00,09,00,00,00,00,
7965191,00000480,false,Rx,0,8,53,20,00,00,19,06,00,6C,
7966160,00000050,false,Rx,0,4,00,01,A0,A1,00,00,00,00,
7966718,000001A0,false,Rx,0,8,00,43,00,00,FE,FE,00,1F,
7967217,00000320,false,Rx,0,8,02,06,00,01,00,00,00,00,
7967553,000005D8,false,Rx,0,8,15,04,00,03,01,00,00,00,
7967799,000005D0,false,Rx,0,6,80,47,51,30,24,41,00,00,
7971181,00000280,false,Rx,0,8,01,70,00,00,70,00,2B,00,
7971432,00000488,false,Rx,0,8,56,00,00,80,A6,00,00,70,
7973808,000001A0,false,Rx,0,8,00,43,00,00,FE,FE,00,10,
7974062,000004A0,false,Rx,0,8,00,00,00,00,00,00,00,00,
7974313,000005A0,false,Rx,0,8,64,01,00,C4,B1,00,00,30,
7975170,00000588,false,Rx,0,8,E9,0C,80,00,63,00,00,00,
7980655,000001A0,false,Rx,0,8,00,43,00,00,FE,FE,00,11,
7981132,00000288,false,Rx,0,8,8F,53,00,00,00,56,00,00,
7981384,00000380,false,Rx,0,8,00,4E,00,09,00,00,00,00,
7985188,00000480,false,Rx,0,8,A4,20,00,00,19,06,00,9B,
7986208,00000050,false,Rx,0,4,00,01,B0,B1,00,00,00,00,
7987752,000001A0,false,Rx,0,8,00,43,00,00,FE,FE,00,12,
7987999,000004A0,false,Rx,0,8,00,00,00,00,00,00,00,00,
7988252,000005A0,false,Rx,0,8,64,01,00,72,BF,00,00,30,
7991160,00000280,false,Rx,0,8,01,70,00,00,70,00,2B,00,
7991406,00000488,false,Rx,0,8,A6,00,00,80,A6,00,00,80,
7992801,00000320,false,Rx,0,8,02,06,00,01,00,00,00,00,
7994798,000001A0,false,Rx,0,8,00,43,00,00,FE,FE,00,13,
7995201,00000588,false,Rx,0,8,E9,0D,80,00,63,00,00,00,
8001238,00000288,false,Rx,0,8,8F,53,00,00,00,56,00,00,
8001449,00000380,false,Rx,0,8,00,4E,00,09,00,00,00,00,
8001704,000001A0,false,Rx,0,8,00,43,00,00,FE,FE,00,14,
8001950,000004A0,false,Rx,0,8,00,00,00,00,00,00,00,00,
8002201,000005A0,false,Rx,0,8,64,01,00,20,CD,00,00,30,
8005229,00000480,false,Rx,0,8,A4,20,00,00,19,06,00,9B,
8006252,00000050,false,Rx,0,4,00,01,C0,C1,00,00,00,00,
8008782,000001A0,false,Rx,0,8,00,43,00,00,FE,FE,00,15,
8011155,00000280,false,Rx,0,8,01,70,00,00,70,00,2B,00,
8011406,00000488,false,Rx,0,8,B6,00,00,80,A6,00,00,90,
8015148,00000588,false,Rx,0,8,E9,0D,80,00,63,00,00,00,
8015856,000001A0,false,Rx,0,8,00,43,00,00,FE,FE,00,16,
8016105,000004A0,false,Rx,0,8,00,00,00,00,00,00,00,00,
8016281,000005A0,false,Rx,0,8,7F,00,00,CE,DA,00,00,30,
8016835,00000320,false,Rx,0,8,02,06,00,01,00,00,00,00,
8017160,00000420,false,Rx,0,8,06,78,79,44,00,00,FF,00,
8021200,00000288,false,Rx,0,8,8F,53,00,00,00,56,00,00,
8021451,00000380,false,Rx,0,8,00,4E,00,09,00,00,00,00,
8024193,000001A0,false,Rx,0,8,00,42,00,00,FE,FE,00,17,
8025265,00000480,false,Rx,0,8,A4,20,00,00,19,06,00,9B,
8026238,00000050,false,Rx,0,4,00,01,D0,D1,00,00,00,00,
8030280,000001A0,false,Rx,0,8,00,40,00,00,FE,FE,00,18,
8030538,000004A0,false,Rx,0,8,00,00,00,00,00,00,00,00,
8030784,000005A0,false,Rx,0,8,7F,00,00,7C,E8,00,00,30,
8031185,00000280,false,Rx,0,8,01,70,00,00,70,00,2B,00,
8031361,00000488,false,Rx,0,8,86,00,00,80,A6,00,00,A0,
8035175,00000588,false,Rx,0,8,E9,0D,80,00,63,00,00,00,
8037323,000001A0,false,Rx,0,8,00,40,00,00,FE,FE,00,19,
8041139,00000288,false,Rx,0,8,8F,53,00,00,00,56,00,00,
8041391,00000380,false,Rx,0,8,00,4E,00,09,00,00,00,00,
8041570,00000570,false,Rx,0,4,07,00,EB,00,00,00,00,00,
8044466,00000320,false,Rx,0,8,02,06,00,01,00,00,00,00,
8044498,000001A0,false,Rx,0,8,00,40,00,00,FE,FE,00,1A,
8044639,000004A0,false,Rx,0,8,00,00,00,00,00,00,00,00,
8044810,000005A0,false,Rx,0,8,7F,00,00,2A,F6,00,00,30,
8045140,00000480,false,Rx,0,8,A4,20,00,00,19,06,00,9B,
8046228,00000050,false,Rx,0,4,00,01,E0,E1,00,00,00,00,
8051175,00000280,false,Rx,0,8,01,70,00,00,70,00,2B,00,
8051426,000001A0,false,Rx,0,8,00,40,00,00,FE,FE,00,1B,
8051680,00000488,false,Rx,0,8,96,00,00,80,A6,00,00,B0,
8055185,00000588,false,Rx,0,8,E9,0D,80,00,63,00,00,00,
8058390,000001A0,false,Rx,0,8,00,40,00,00,FE,FE,00,1C,
8058649,000004A0,false,Rx,0,8,00,00,00,00,00,00,00,00,
8058895,000005A0,false,Rx,0,8,7F,00,00,D8,03,00,00,30,
8061190,00000288,false,Rx,0,8,DE,53,00,00,00,56,00,00,
8061442,00000380,false,Rx,0,8,00,4E,00,09,00,00,00,00,
8065295,00000480,false,Rx,0,8,ED,20,00,00,19,06,00,D2,
8065504,000001A0,false,Rx,0,8,00,40,00,00,FE,FE,00,1D,
8066298,00000050,false,Rx,0,4,00,01,F0,F1,00,00,00,00,
8067164,00000320,false,Rx,0,8,02,06,00,01,00,00,00,00,
8067493,000005D8,false,Rx,0,8,15,04,00,03,01,00,00,00,
8067725,000005D0,false,Rx,0,6,80,47,51,30,24,41,00,00,
8068049,00000520,false,Rx,0,8,02,04,01,42,00,75,34,04,
8071189,00000280,false,Rx,0,8,01,70,00,00,70,00,2B,00,
8071374,00000488,false,Rx,0,8,E6,00,00,80,A6,00,00,C0,
8072460,000001A0,false,Rx,0,8,00,40,00,00,FE,FE,00,1E,
8072713,000004A0,false,Rx,0,8,00,00,00,00,00,00,00,00,
8072960,000005A0,false,Rx,0,8,7F,00,00,86,11,00,00,30,
8075183,00000588,false,Rx,0,8,E9,0D,80,00,63,00,00,00,
8079298,000001A0,false,Rx,0,8,00,40,00,00,FE,FE,00,1F,
8081145,00000288,false,Rx,0,8,DE,53,00,00,00,56,00,00,
8081391,00000380,false,Rx,0,8,00,4E,00,09,00,00,00,00,
8085193,00000480,false,Rx,0,8,ED,20,00,00,19,06,00,D2,
8086369,000001A0,false,Rx,0,8,00,40,00,00,FE,FE,00,10,
8086553,00000050,false,Rx,0,4,00,01,00,01,00,00,00,00,
8086799,000004A0,false,Rx,0,8,00,00,00,00,00,00,00,00,
8087048,000005A0,false,Rx,0,8,7F,00,00,34,1F,00,00,30,
8091160,00000280,false,Rx,0,8,01,70,00,00,70,00,2B,00,
8091411,00000488,false,Rx,0,8,F6,00,00,80,A6,00,00,D0,
8091964,00000320,false,Rx,0,8,02,06,00,01,00,00,00,00,
8093424,000001A0,false,Rx,0,8,00,40,00,00,FE,FE,00,11,
8095197,00000588,false,Rx,0,8,E9,0D,80,00,63,00,00,00,
8100294,000001A0,false,Rx,0,8,00,40,00,00,FE,FE,00,12,
8100553,000004A0,false,Rx,0,8,00,00,00,00,00,00,00,00,
8100799,000005A0,false,Rx,0,8,7F,00,00,E2,2C,00,00,30,
8101200,00000288,false,Rx,0,8,DE,53,00,00,00,56,00,00,
8101451,00000380,false,Rx,0,8,00,4E,00,09,00,00,00,00,
8105284,00000480,false,Rx,0,8,ED,20,00,00,19,06,00,D2,
8106311,00000050,false,Rx,0,4,00,01,10,11,00,00,00,00,
8107342,000001A0,false,Rx,0,8,00,40,00,00,FE,FE,00,13,
8111160,00000280,false,Rx,0,8,01,70,00,00,70,00,2B,00,
8111408,00000488,false,Rx,0,8,C6,00,00,80,A6,00,00,E0,
8114387,000001A0,false,Rx,0,8,00,40,00,00,FE,FE,00,14,
8114645,000004A0,false,Rx,0,8,00,00,00,00,00,00,00,00,
8114891,000005A0,false,Rx,0,8,7F,00,00,90,3A,00,00,30,
8115144,00000588,false,Rx,0,8,E9,0D,80,00,63,00,00,00,
8116915,00000320,false,Rx,0,8,02,06,00,01,00,00,00,00,
8121185,00000288,false,Rx,0,8,DE,53,00,00,00,56,00,00,
8121435,000001A0,false,Rx,0,8,00,40,00,00,FE,FE,00,15,
8121689,00000380,false,Rx,0,8,00,4E,00,09,00,00,00,00,
8125222,00000480,false,Rx,0,8,ED,20,00,00,19,06,00,D2,
8126397,00000050,false,Rx,0,4,00,01,20,21,00,00,00,00,
8128396,000001A0,false,Rx,0,8,00,40,00,00,FE,FE,00,16,
8128655,000004A0,false,Rx,0,8,00,00,00,00,00,00,00,00,
8128901,000005A0,false,Rx,0,8,7F,00,00,3E,48,00,00,30,
8131122,00000280,false,Rx,0,8,01,70,00,00,70,00,2B,00,
8131373,00000488,false,Rx,0,8,D6,00,00,80,A6,00,00,F0,
8135184,00000588,false,Rx,0,8,E9,0E,80,00,63,00,00,00,
8135435,000001A0,false,Rx,0,8,00,40,00,00,FE,FE,00,17,
8140763,00000570,false,Rx,0,4,07,00,EB,00,00,00,00,00,
8141168,00000288,false,Rx,0,8,0C,53,00,00,00,56,00,00,
8141420,00000380,false,Rx,0,8,00,4E,00,09,00,00,00,00,
8142052,00000320,false,Rx,0,8,02,06,00,01,00,00,00,00,
8142378,000001A0,false,Rx,0,8,00,40,00,00,FE,FE,00,18,
8142557,000004A0,false,Rx,0,8,00,00,00,00,00,00,00,00,
8144353,000005A0,false,Rx,0,8,7F,00,00,EC,55,00,00,30,
8145233,00000480,false,Rx,0,8,19,20,00,00,19,06,00,26,
8146412,00000050,false,Rx,0,4,00,01,30,31,00,00,00,00,
8149395,000001A0,false,Rx,0,8,00,40,00,00,FE,FE,00,19,
8151164,00000280,false,Rx,0,8,01,70,00,00,70,00,2B,00,
8151416,00000488,false,Rx,0,8,26,00,00,80,A6,00,00,00,
8155155,00000588,false,Rx,0,8,E9,0E,80,00,63,00,00,00,
8156393,000001A0,false,Rx,0,8,00,40,00,00,FE,FE,00,1A,
8156652,000004A0,false,Rx,0,8,00,00,00,00,00,00,00,00,
8156898,000005A0,false,Rx,0,8,7F,00,00,9A,63,00,00,30,
8161160,00000288,false,Rx,0,8,0C,53,00,00,00,56,00,00,
8161410,00000380,false,Rx,0,8,00,4E,00,09,00,00,00,00,
8164428,000001A0,false,Rx,0,8,00,40,00,00,FE,FE,00,1B,
8165182,00000480,false,Rx,0,8,19,20,00,00,19,06,00,26,
8166429,00000050,false,Rx,0,4,00,01,40,41,00,00,00,00,
8167292,00000320,false,Rx,0,8,02,06,00,01,00,00,00,00,
8167651,000005D8,false,Rx,0,8,15,04,00,03,01,00,00,00,
8167897,000005D0,false,Rx,0,6,80,47,51,30,24,41,00,00,
8170402,000001A0,false,Rx,0,8,00,40,00,00,FE,FE,00,1C,
8170683,000004A0,false,Rx,0,8,00,00,00,00,00,00,00,00,
8170854,000005A0,false,Rx,0,8,7F,00,00,48,71,00,00,30,
8171180,00000280,false,Rx,0,8,01,70,00,00,70,00,2B,00,
8171431,00000488,false,Rx,0,8,36,00,00,80,A6,00,00,10,
8175197,00000588,false,Rx,0,8,E9,0E,80,00,63,00,00,00,
8177422,000001A0,false,Rx,0,8,00,40,00,00,FE,FE,00,1D,
8181159,00000288,false,Rx,0,8,0C,53,00,00,00,56,00,00,
8181410,00000380,false,Rx,0,8,00,4E,00,09,00,00,00,00,
8184523,000001A0,false,Rx,0,8,00,40,00,00,FE,FE,00,1E,
8184638,000004A0,false,Rx,0,8,00,00,00,00,00,00,00,00,
8184890,000005A0,false,Rx,0,8,7F,00,00,F6,7E,00,00,30,
8185139,00000480,false,Rx,0,8,19,20,00,00,19,06,00,26,
8186410,00000050,false,Rx,0,4,00,01,50,51,00,00,00,00,
8191175,00000280,false,Rx,0,8,01,70,00,00,70,00,2B,00,
8191426,000001A0,false,Rx,0,8,00,40,00,00,FE,FE,00,1F,
8191606,00000488,false,Rx,0,8,06,00,00,80,A6,00,00,20,
8191851,00000320,false,Rx,0,8,02,06,00,01,00,00,00,00,
8195133,00000588,false,Rx,0,8,E9,0E,80,00,63,00,00,00,
8198498,000001A0,false,Rx,0,8,00,40,00,00,FE,FE,00,10,
8198749,000004A0,false,Rx,0,8,00,00,00,00,00,00,00,00,
8198999,000005A0,false,Rx,0,8,7F,00,00,A4,8C,00,00,30,
8201138,00000288,false,Rx,0,8,0C,53,00,00,00,56,00,00,
8201390,00000380,false,Rx,0,8,00,4E,00,09,00,00,00,00,
8205192,00000480,false,Rx,0,8,19,20,00,00,19,06,00,26,
8205368,000001A0,false,Rx,0,8,00,40,00,00,FE,FE,00,11,
8206472,00000050,false,Rx,0,4,00,01,60,61,00,00,00,00,
8211125,00000280,false,Rx,0,8,01,70,00,00,70,00,2B,00,
8211373,00000488,false,Rx,0,8,16,00,00,80,A6,00,00,30,
8212541,000001A0,false,Rx,0,8,00,40,00,00,FE,FE,00,12,
8212790,000004A0,false,Rx,0,8,00,00,00,00,00,00,00,00,
8213038,000005A0,false,Rx,0,8,7F,00,00,52,9A,00,00,30,
8215183,00000588,false,Rx,0,8,E9,0E,80,00,63,00,00,00,
8216801,00000320,false,Rx,0,8,02,06,00,01,00,00,00,00,
8217126,00000420,false,Rx,0,8,06,78,79,44,00,00,FF,00,
8219347,000001A0,false,Rx,0,8,00,40,00,00,FE,FE,00,13,
8221152,00000288,false,Rx,0,8,75,53,00,00,00,56,00,00,
8221401,00000380,false,Rx,0,8,00,4E,00,09,00,00,00,00,
8225199,00000480,false,Rx,0,8,53,20,00,00,19,06,00,6C,
8226472,000001A0,false,Rx,0,8,00,40,00,00,FE,FE,00,14,
8226598,00000050,false,Rx,0,4,00,01,70,71,00,00,00,00,
8226844,000004A0,false,Rx,0,8,00,00,00,00,00,00,00,00,
8227094,000005A0,false,Rx,0,8,7F,00,00,00,A8,00,00,30,
8231137,00000280,false,Rx,0,8,01,6F,00,00,6F,00,2B,00,
8231388,00000488,false,Rx,0,8,66,00,00,80,A6,00,00,40,
8233455,000001A0,false,Rx,0,8,00,40,00,00,FE,FE,00,15,
8235150,00000588,false,Rx,0,8,E9,0E,80,00,63,00,00,00,
8240400,000001A0,false,Rx,0,8,00,40,00,00,FE,FE,00,16,
8240659,000004A0,false,Rx,0,8,00,00,00,00,00,00,00,00,
8240830,000005A0,false,Rx,0,8,7F,00,00,AE,B5,00,00,30,
8241156,00000288,false,Rx,0,8,75,53,00,00,00,56,00,00,
8241406,00000380,false,Rx,0,8,00,4E,00,09,00,00,00,00,
8241585,00000570,false,Rx,0,4,07,00,EB,00,00,00,00,00,
8242890,00000320,false,Rx,0,8,02,06,00,01,00,00,00,00,
8245168,00000480,false,Rx,0,8,53,20,00,00,19,06,00,6C,
8246763,00000050,false,Rx,0,4,00,01,80,81,00,00,00,00,
8247469,000001A0,false,Rx,0,8,00,40,00,00,FE,FE,00,17,
8251139,00000280,false,Rx,0,8,01,6F,00,00,6F,00,2B,00,
8251391,00000488,false,Rx,0,8,76,00,00,80,A6,00,00,50,
8254522,000001A0,false,Rx,0,8,00,40,00,00,FE,FE,00,18,
8254698,000004A0,false,Rx,0,8,00,00,00,00,00,00,00,00,
8254944,000005A0,false,Rx,0,8,7F,00,00,5C,C3,00,00,30,
8255195,00000588,false,Rx,0,8,E9,0E,80,00,63,00,00,00,
8261130,00000288,false,Rx,0,8,75,53,00,00,00,56,00,00,
8261381,000001A0,false,Rx,0,8,00,40,00,00,FE,FE,00,19,
8261635,00000380,false,Rx,0,8,00,4E,00,09,00,00,00,00,
8265205,00000480,false,Rx,0,8,53,20,00,00,19,06,00,6C,
8266476,00000050,false,Rx,0,4,00,01,90,91,00,00,00,00,
8267055,00000320,false,Rx,0,8,00,06,2D,01,00,00,00,00,
8267381,000005D8,false,Rx,0,8,15,04,00,03,01,00,00,00,
8267710,000005D0,false,Rx,0,6,80,47,51,30,24,41,00,00,
8268035,00000520,false,Rx,0,8,51,67,01,42,00,75,34,04,
8268520,000001A0,false,Rx,0,8,00,40,00,00,FE,FE,00,1A,
8268766,000004A0,false,Rx,0,8,00,00,00,00,00,00,00,00,
8269016,000005A0,false,Rx,0,8,7F,00,00,0A,D1,00,00,30,
8271162,00000280,false,Rx,0,8,01,6F,00,00,6F,00,2B,00,
8271414,00000488,false,Rx,0,8,46,00,00,80,A6,00,00,60,
8275228,00000588,false,Rx,0,8,E9,0F,80,00,63,00,00,00,
8275526,000001A0,false,Rx,0,8,00,40,00,00,FE,FE,00,1B,
8281144,00000288,false,Rx,0,8,75,53,00,00,00,56,00,00,
8281396,00000380,false,Rx,0,8,00,4E,00,09,00,00,00,00,
8282402,000001A0,false,Rx,0,8,00,40,00,00,FE,FE,00,1C,
8282661,000004A0,false,Rx,0,8,00,00,00,00,00,00,00,00,
8282907,000005A0,false,Rx,0,8,7F,00,00,B8,DE,00,00,30,
8285228,00000480,false,Rx,0,8,53,20,00,00,19,06,00,6C,
8286495,00000050,false,Rx,0,4,00,01,A0,A1,00,00,00,00,
8289471,000001A0,false,Rx,0,8,00,40,00,00,FE,FE,00,1D,
8291165,00000280,false,Rx,0,8,01,6F,00,00,6F,00,2B,00,
8291411,00000488,false,Rx,0,8,56,00,00,80,A6,00,00,70,
8291964,00000320,false,Rx,0,8,00,06,2D,01,00,00,00,00,
8295230,00000588,false,Rx,0,8,E9,0F,80,00,63,00,00,00,
8296568,000001A0,false,Rx,0,8,00,40,00,00,FE,FE,00,1E,
8296738,000004A0,false,Rx,0,8,00,00,00,00,00,00,00,00,
8296984,000005A0,false,Rx,0,8,7F,00,00,66,EC,00,00,30,
8301175,00000288,false,Rx,0,8,8F,53,00,00,00,56,00,00,
8301421,00000380,false,Rx,0,8,00,4E,00,09,00,00,00,00,
8304746,000001A0,false,Rx,0,8,00,40,00,00,FE,FE,00,1F,
8305186,00000480,false,Rx,0,8,A4,20,00,00,19,06,00,9B,
8306581,00000050,false,Rx,0,4,00,01,B0,B1,00,00,00,00,
8310465,000001A0,false,Rx,0,8,00,40,00,00,FE,FE,00,10,
8310718,000004A0,false,Rx,0,8,00,00,00,00,00,00,00,00,
8310964,000005A0,false,Rx,0,8,7F,00,00,14,FA,00,00,30,
8311219,00000280,false,Rx,0,8,01,6F,00,00,6F,00,2B,00,
8311465,00000488,false,Rx,0,8,A6,00,00,80,A6,00,00,80,
8315133,00000588,false,Rx,0,8,E9,0F,80,00,63,00,00,00,
8316677,00000320,false,Rx,0,8,00,06,2D,01,00,00,00,00,
8317541,000001A0,false,Rx,0,8,00,40,00,00,FE,FE,00,11,
8321200,00000288,false,Rx,0,8,8F,53,00,00,00,56,00,00,
8321445,00000380,false,Rx,0,8,00,4E,00,09,00,00,00,00,
8324791,000001A0,false,Rx,0,8,00,40,00,00,FE,FE,00,12,
8324814,000004A0,false,Rx,0,8,00,00,00,00,00,00,00,00,
8324923,000005A0,false,Rx,0,8,7F,00,00,C2,07,00,00,30,
8325262,00000480,false,Rx,0,8,A4,20,00,00,19,06,00,9B,
8326639,00000050,false,Rx,0,4,00,01,C0,C1,00,00,00,00,
8331159,00000280,false,Rx,0,8,01,6F,00,00,6F,00,2B,00,
8331411,00000488,false,Rx,0,8,B6,00,00,80,A6,00,00,90,
8331589,000001A0,false,Rx,0,8,00,40,00,00,FE,FE,00,13,
8335171,00000588,false,Rx,0,8,E9,0F,80,00,63,00,00,00,
8338533,000001A0,false,Rx,0,8,00,40,00,00,FE,FE,00,14,
8338785,000004A0,false,Rx,0,8,00,00,00,00,00,00,00,00,
8339035,000005A0,false,Rx,0,8,7F,00,00,70,15,00,00,30,
8340655,00000570,false,Rx,0,4,07,00,EB,00,00,00,00,00,
8341133,00000288,false,Rx,0,8,8F,53,00,00,00,56,00,00,
8341384,00000380,false,Rx,0,8,00,4E,00,09,00,00,00,00,
8342016,00000320,false,Rx,0,8,00,06,2D,01,00,00,00,00,
8345183,00000480,false,Rx,0,8,A4,20,00,00,19,06,00,9B,
8345444,000001A0,false,Rx,0,8,00,40,00,00,FE,FE,00,15,
8346539,00000050,false,Rx,0,4,00,01,D0,D1,00,00,00,00,
8351108,00000280,false,Rx,0,8,01,6F,00,00,6F,00,2B,00,
8351359,00000488,false,Rx,0,8,86,00,00,80,A6,00,00,A0,
8352600,000001A0,false,Rx,0,8,00,40,00,00,FE,FE,00,16,
8352851,000004A0,false,Rx,0,8,00,00,00,00,00,00,00,00,
8353102,000005A0,false,Rx,0,8,7F,00,00,1E,23,00,00,30,
8355175,00000588,false,Rx,0,8,E9,0F,80,00,63,00,00,00,
8359439,000001A0,false,Rx,0,8,00,40,00,00,FE,FE,00,17,
8361137,00000288,false,Rx,0,8,8F,53,00,00,00,56,00,00,
8361388,00000380,false,Rx,0,8,00,4E,00,09,00,00,00,00,
8365218,00000480,false,Rx,0,8,A4,20,00,00,19,06,00,9B,
8366515,000001A0,false,Rx,0,8,00,40,00,00,FE,FE,00,18,
8366647,00000050,false,Rx,0,4,00,01,E0,E1,00,00,00,00,
8366893,000004A0,false,Rx,0,8,00,00,00,00,00,00,00,00,
8367143,00000320,false,Rx,0,8,00,06,2D,01,00,00,00,00,
8367394,000005A0,false,Rx,0,8,7F,00,00,CC,30,00,00,30,
8367648,000005D8,false,Rx,0,8,15,04,00,03,01,00,00,00,
8367969,000005D0,false,Rx,0,6,80,47,51,30,24,41,00,00,
8371175,00000280,false,Rx,0,8,01,6F,00,00,6F,00,2B,00,
8371351,00000488,false,Rx,0,8,96,00,00,80,A6,00,00,B0,
8373573,000001A0,false,Rx,0,8,00,40,00,00,FE,FE,00,19,
8375198,00000588,false,Rx,0,8,E9,0F,80,00,63,00,00,00,
8380515,000001A0,false,Rx,0,8,00,40,00,00,FE,FE,00,1A,
8380698,000004A0,false,Rx,0,8,00,00,00,00,00,00,00,00,
8380945,000005A0,false,Rx,0,8,7F,00,00,7A,3E,00,00,30,
8381195,00000288,false,Rx,0,8,DE,53,00,00,00,56,00,00,
8381446,00000380,false,Rx,0,8,00,4E,00,09,00,00,00,00,
8385194,00000480,false,Rx,0,8,ED,20,00,00,19,06,00,D2,
8386627,00000050,false,Rx,0,4,00,01,F0,F1,00,00,00,00,
8387568,000001A0,false,Rx,0,8,00,40,00,00,FE,FE,00,1B,
8391150,00000280,false,Rx,0,8,01,6F,00,00,6F,00,2B,00,
8391402,00000488,false,Rx,0,8,E6,00,00,80,A6,00,00,C0,
8391730,00000320,false,Rx,0,8,00,06,2D,01,00,00,00,00,
8394558,000001A0,false,Rx,0,8,00,40,00,00,FE,FE,00,1C,
8394808,000004A0,false,Rx,0,8,00,00,00,00,00,00,00,00,
8395058,000005A0,false,Rx,0,8,7F,00,00,28,4C,00,00,30,
8395309,00000588,false,Rx,0,8,E9,0F,80,00,63,00,00,00,
8401160,00000288,false,Rx,0,8,DE,53,00,00,00,56,00,00,
8401411,00000380,false,Rx,0,8,00,4E,00,09,00,00,00,00,
8401664,000001A0,false,Rx,0,8,00,40,00,00,FE,FE,00,1D,
8405225,00000480,false,Rx,0,8,ED,20,00,00,19,06,00,D2,
8406633,00000050,false,Rx,0,4,00,01,00,01,00,00,00,00,
8408582,000001A0,false,Rx,0,8,00,40,00,00,FE,FE,00,1E,
8408832,000004A0,false,Rx,0,8,00,00,00,00,00,00,00,00,
8409084,000005A0,false,Rx,0,8,7F,00,00,D6,59,00,00,30,
8411155,00000280,false,Rx,0,8,01,6F,00,00,6F,00,2B,00,
8411405,00000488,false,Rx,0,8,F6,00,00,80,A6,00,00,D0,
8415139,00000588,false,Rx,0,8,E9,0F,80,00,63,00,00,00,
8415548,000001A0,false,Rx,0,8,00,40,00,00,FE,FE,00,1F,
8416706,00000320,false,Rx,0,8,00,06,2D,01,00,00,00,00,
8417034,00000420,false,Rx,0,8,06,78,79,44,00,00,FF,00,
8421145,00000288,false,Rx,0,8,DE,53,00,00,00,56,00,00,
8421394,00000380,false,Rx,0,8,00,4E,00,09,00,00,00,00,
8422561,000001A0,false,Rx,0,8,00,40,00,00,FE,FE,00,10,
8422811,000004A0,false,Rx,0,8,00,00,00,00,00,00,00,00,
8422982,000005A0,false,Rx,0,8,7F,00,00,84,67,00,00,30,
8425168,00000480,false,Rx,0,8,ED,20,00,00,19,06,00,D2,
8426651,00000050,false,Rx,0,4,00,01,10,11,00,00,00,00,
8429557,000001A0,false,Rx,0,8,00,40,00,00,FE,FE,00,11,
8431172,00000280,false,Rx,0,8,01,6F,00,00,6F,00,2B,00,
8431348,00000488,false,Rx,0,8,39,00,00,7F,A6,00,00,E0,
8435148,00000588,false,Rx,0,8,E9,10,7F,00,63,00,00,00,
8436620,000001A0,false,Rx,0,8,00,40,00,00,FE,FE,00,12,
8436796,000004A0,false,Rx,0,8,00,00,00,00,00,00,00,00,
8437047,000005A0,false,Rx,0,8,7F,00,00,32,75,00,00,30,
8440633,00000570,false,Rx,0,4,07,00,EB,00,00,00,00,00,
8441188,00000288,false,Rx,0,8,DE,53,00,00,00,56,00,00,
8441364,00000380,false,Rx,0,8,00,4E,00,09,00,00,00,00,
8442070,00000320,false,Rx,0,8,00,06,2D,01,00,00,00,00,
8445042,000001A0,false,Rx,0,8,00,40,00,00,FE,FE,00,13,
8445168,00000480,false,Rx,0,8,ED,20,00,00,19,06,00,D2,
8446667,00000050,false,Rx,0,4,00,01,20,21,00,00,00,00,
8450586,000001A0,false,Rx,0,8,00,40,00,00,FE,FE,00,14,
8450758,000004A0,false,Rx,0,8,00,00,00,00,00,00,00,00,
8451007,000005A0,false,Rx,0,8,7F,00,00,E0,82,00,00,30,
8451258,00000280,false,Rx,0,8,01,6F,00,00,6F,00,2B,00,
8451514,00000488,false,Rx,0,8,D6,00,00,80,A6,00,00,F0,
8455173,00000588,false,Rx,0,8,E9,10,80,00,63,00,00,00,
8457556,000001A0,false,Rx,0,8,00,40,00,00,FE,FE,00,15,
8461139,00000288,false,Rx,0,8,0C,53,00,00,00,56,00,00,
8461386,00000380,false,Rx,0,8,00,4E,00,09,00,00,00,00,
8465127,000001A0,false,Rx,0,8,00,40,00,00,FE,FE,00,16,
8465151,000004A0,false,Rx,0,8,00,00,00,00,00,00,00,00,
8465170,000005A0,false,Rx,0,8,7F,00,00,8E,90,00,00,30,
8465307,00000480,false,Rx,0,8,19,20,00,00,19,06,00,26,
8466626,00000050,false,Rx,0,4,00,01,30,31,00,00,00,00,
8467180,00000580,false,Rx,0,8,02,00,00,13,19,4D,44,13,
8467426,00000320,false,Rx,0,8,00,06,2D,01,00,00,00,00,
8467680,000005D8,false,Rx,0,8,15,04,00,03,01,00,00,00,
8468001,000005D0,false,Rx,0,6,80,47,51,30,24,41,00,00,
8468329,00000520,false,Rx,0,8,0C,88,01,42,00,75,34,04,
8471175,00000280,false,Rx,0,8,01,6F,00,00,6F,00,2B,00,
8471357,00000488,false,Rx,0,8,26,00,00,80,A6,00,00,00,
8471610,000001A0,false,Rx,0,8,00,40,00,00,FE,FE,00,17,
8475115,00000588,false,Rx,0,8,E9,10,80,00,63,00,00,00,
8478622,000001A0,false,Rx,0,8,00,40,00,00,FE,FE,00,18,
8478892,000004A0,false,Rx,0,8,00,00,00,00,00,00,00,00,
8479067,000005A0,false,Rx,0,8,7F,00,00,3C,9E,00,00,30,
8481170,00000288,false,Rx,0,8,0C,53,00,00,00,56,00,00,
8481423,00000380,false,Rx,0,8,00,4E,00,09,00,00,00,00,
8485237,00000480,false,Rx,0,8,19,20,00,00,19,06,00,26,
8485570,000001A0,false,Rx,0,8,00,40,00,00,FE,FE,00,19,
8486657,00000050,false,Rx,0,4,00,01,40,41,00,00,00,00,
8491196,00000280,false,Rx,0,8,01,6F,00,00,6F,00,2B,00,
8491405,00000488,false,Rx,0,8,36,00,00,80,A6,00,00,10,
8492113,00000320,false,Rx,0,8,00,06,2D,01,00,00,00,00,
8492672,000001A0,false,Rx,0,8,00,40,00,00,FE,FE,00,1A,
8492919,000004A0,false,Rx,0,8,00,00,00,00,00,00,00,00,
8493168,000005A0,false,Rx,0,8,7F,00,00,EA,AB,00,00,30,
8495162,00000588,false,Rx,0,8,E9,10,80,00,63,00,00,00,
8499513,000001A0,false,Rx,0,8,00,40,00,00,FE,FE,00,1B,
8501128,00000288,false,Rx,0,8,0C,53,00,00,00,56,00,00,
8501379,00000380,false,Rx,0,8,00,4E,00,09,00,00,00,00,
8505204,00000480,false,Rx,0,8,19,20,00,00,19,06,00,26,
8506613,000001A0,false,Rx,0,8,00,40,00,00,FE,FE,00,1C,
8506710,00000050,false,Rx,0,4,00,01,50,51,00,00,00,00,
8506960,000004A0,false,Rx,0,8,00,00,00,00,00,00,00,00,
8507208,000005A0,false,Rx,0,8,7F,00,00,98,B9,00,00,30,
8511100,00000280,false,Rx,0,8,01,6F,00,00,6F,00,2B,00,
8511351,00000488,false,Rx,0,8,06,00,00,80,A6,00,00,20,
8513649,000001A0,false,Rx,0,8,00,40,00,00,FE,FE,00,1D,
8515188,00000588,false,Rx,0,8,E9,10,80,00,63,00,00,00,
8517115,00000320,false,Rx,0,8,00,06,2D,01,00,00,00,00,
8520554,000001A0,false,Rx,0,8,00,40,00,00,FE,FE,00,1E,
8520805,000004A0,false,Rx,0,8,00,00,00,00,00,00,00,00,
8521053,000005A0,false,Rx,0,8,7F,00,00,46,C7,00,00,30,
8521304,00000288,false,Rx,0,8,0C,53,00,00,00,56,00,00,
8521558,00000380,false,Rx,0,8,00,4E,00,09,00,00,00,00,
8525258,00000480,false,Rx,0,8,19,20,00,00,19,06,00,26,
8526740,00000050,false,Rx,0,4,00,01,60,61,00,00,00,00,
8527602,000001A0,false,Rx,0,8,00,40,00,00,FE,FE,00,1F,
8531115,00000280,false,Rx,0,8,01,6F,00,00,6F,00,2B,00,
8531361,00000488,false,Rx,0,8,16,00,00,80,A6,00,00,30,
8534648,000001A0,false,Rx,0,8,00,40,00,00,FE,FE,00,10,
8534894,000004A0,false,Rx,0,8,00,00,00,00,00,00,00,00,
8535150,000005A0,false,Rx,0,8,7F,00,00,F4,D4,00,00,30,
8535396,00000588,false,Rx,0,8,E9,10,80,00,63,00,00,00,
8541185,00000288,false,Rx,0,8,75,53,00,00,00,56,00,00,
8541431,00000380,false,Rx,0,8,00,4E,00,09,00,00,00,00,
8541610,000001A0,false,Rx,0,8,00,40,00,00,FE,FE,00,11,
8541856,00000570,false,Rx,0,4,07,00,EB,00,00,00,00,00,
8543096,00000320,false,Rx,0,8,00,06,2D,01,00,00,00,00,
8545375,00000480,false,Rx,0,8,53,20,00,00,19,06,00,6C,
8546871,00000050,false,Rx,0,4,00,01,70,71,00,00,00,00,
8548734,000001A0,false,Rx,0,8,00,40,00,00,FE,FE,00,12,
8549015,000004A0,false,Rx,0,8,00,00,00,00,00,00,00,00,
8549476,000005A0,false,Rx,0,8,7F,00,00,A2,E2,00,00,30,
8551158,00000280,false,Rx,0,8,01,6F,00,00,6F,00,2B,00,
8551351,00000488,false,Rx,0,8,66,00,00,80,A6,00,00,40,
8555189,00000588,false,Rx,0,8,E9,10,80,00,63,00,00,00,
8555608,000001A0,false,Rx,0,8,00,40,00,00,FE,FE,00,13,
8561186,00000288,false,Rx,0,8,75,53,00,00,00,56,00,00,
8561382,00000380,false,Rx,0,8,00,4E,00,09,00,00,00,00,
8562551,000001A0,false,Rx,0,8,00,40,00,00,FE,FE,00,14,
8562797,000004A0,false,Rx,0,8,00,00,00,00,00,00,00,00,
8563045,000005A0,false,Rx,0,8,7F,00,00,50,F0,00,00,30,
8565188,00000480,false,Rx,0,8,53,20,00,00,19,06,00,6C,
8566809,00000050,false,Rx,0,4,00,01,80,81,00,00,00,00,
8568203,00000320,false,Rx,0,8,00,06,2D,01,00,00,00,00,
8568553,000005D8,false,Rx,0,8,15,04,00,03,01,00,00,00,
8568814,000005D0,false,Rx,0,6,80,47,51,30,24,41,00,00,
8569598,000001A0,false,Rx,0,8,00,40,00,00,FE,FE,00,15,
8571168,00000280,false,Rx,0,8,01,6F,00,00,6F,00,2B,00,
8571354,00000488,false,Rx,0,8,76,00,00,80,A6,00,00,50,
8575168,00000588,false,Rx,0,8,E9,10,80,00,63,00,00,00,
8576646,000001A0,false,Rx,0,8,00,40,00,00,FE,FE,00,16,
8576897,000004A0,false,Rx,0,8,00,00,00,00,00,00,00,00,
8577144,000005A0,false,Rx,0,8,7F,00,00,FE,FD,00,00,30,
8581162,00000288,false,Rx,0,8,75,53,00,00,00,56,00,00,
8581450,00000380,false,Rx,0,8,00,4E,00,09,00,00,00,00,
8583611,000001A0,false,Rx,0,8,00,40,00,00,FE,FE,00,17,
8585228,00000480,false,Rx,0,8,53,20,00,00,19,06,00,6C,
8586782,00000050,false,Rx,0,4,00,01,90,91,00,00,00,00,
8590597,000001A0,false,Rx,0,8,00,40,00,00,FE,FE,00,18,
8590843,000004A0,false,Rx,0,8,00,00,00,00,00,00,00,00,
8591093,000005A0,false,Rx,0,8,7F,00,00,AC,0B,00,00,30,
8591345,00000280,false,Rx,0,8,01,6F,00,00,6F,00,2B,00,
8591611,00000488,false,Rx,0,8,46,00,00,80,A6,00,00,60,
8592939,00000320,false,Rx,0,8,00,06,2D,01,00,00,00,00,
8595187,00000588,false,Rx,0,8,E9,11,80,00,63,00,00,00,
8597718,000001A0,false,Rx,0,8,00,40,00,00,FE,FE,00,19,
8601150,00000288,false,Rx,0,8,75,53,00,00,00,56,00,00,
8601401,00000380,false,Rx,0,8,00,4E,00,09,00,00,00,00,
8605354,000001A0,false,Rx,0,8,00,40,00,00,FE,FE,00,1A,
8605380,000004A0,false,Rx,0,8,00,00,00,00,00,00,00,00,
8605396,000005A0,false,Rx,0,8,7F,00,00,5A,19,00,00,30,
8605412,00000480,false,Rx,0,8,53,20,00,00,19,06,00,6C,
8606851,00000050,false,Rx,0,4,00,01,A0,A1,00,00,00,00,
8611155,00000280,false,Rx,0,8,01,6F,00,00,6F,00,2B,00,
8611329,00000488,false,Rx,0,8,56,00,00,80,A6,00,00,70,
8611658,000001A0,false,Rx,0,8,00,40,00,00,FE,FE,00,1B,
8615162,00000588,false,Rx,0,8,E9,11,80,00,63,00,00,00,
8617459,00000320,false,Rx,0,8,00,06,2D,01,00,00,00,00,
8617792,00000420,false,Rx,0,8,06,78,79,44,00,00,FF,00,
8618725,000001A0,false,Rx,0,8,00,40,00,00,FE,FE,00,1C,
8618974,000004A0,false,Rx,0,8,00,00,00,00,00,00,00,00,
8619228,000005A0,false,Rx,0,8,7F,00,00,08,27,00,00,30,
8621150,00000288,false,Rx,0,8,8F,53,00,00,00,56,00,00,
8621399,00000380,false,Rx,0,8,00,4E,00,09,00,00,00,00,
8625452,00000480,false,Rx,0,8,A4,20,00,00,19,06,00,9B,
8625593,000001A0,false,Rx,0,8,00,40,00,00,FE,FE,00,1D,
8626832,00000050,false,Rx,0,4,00,01,B0,B1,00,00,00,00,
8631099,00000280,false,Rx,0,8,01,6F,00,00,6F,00,2B,00,
8631345,00000488,false,Rx,0,8,A6,00,00,80,A6,00,00,80,
8632734,000001A0,false,Rx,0,8,00,40,00,00,FE,FE,00,1E,
8632986,000004A0,false,Rx,0,8,00,00,00,00,00,00,00,00,
8633236,000005A0,false,Rx,0,8,7F,00,00,B6,34,00,00,30,
8635159,00000588,false,Rx,0,8,E9,11,80,00,63,00,00,00,
8639573,000001A0,false,Rx,0,8,00,40,00,00,FE,FE,00,1F,
8641112,00000288,false,Rx,0,8,8F,53,00,00,00,56,00,00,
8641433,00000380,false,Rx,0,8,00,4E,00,09,00,00,00,00,
8641538,00000570,false,Rx,0,4,07,00,EB,00,00,00,00,00,
8642919,00000320,false,Rx,0,8,00,06,2D,01,00,00,00,00,
8645443,00000480,false,Rx,0,8,A4,20,00,00,19,06,00,9B,
8646668,000001A0,false,Rx,0,8,00,40,00,00,FE,FE,00,10,
8646929,000004A0,false,Rx,0,8,00,00,00,00,00,00,00,00,
8647183,000005A0,false,Rx,0,8,7F,00,00,64,42,00,00,30,
8647360,00000050,false,Rx,0,4,00,01,C0,C1,00,00,00,00,
8651190,00000280,false,Rx,0,8,01,6F,00,00,6F,00,2B,00,
8651385,00000488,false,Rx,0,8,B6,00,00,80,A6,00,00,90,
8653758,000001A0,false,Rx,0,8,00,40,00,00,FE,FE,00,11,
8655145,00000588,false,Rx,0,8,E9,11,80,00,63,00,00,00,
8660633,000001A0,false,Rx,0,8,00,40,00,00,FE,FE,00,12,
8660883,000004A0,false,Rx,0,8,00,00,00,00,00,00,00,00,
8661132,000005A0,false,Rx,0,8,7F,00,00,12,50,00,00,30,
8661383,00000288,false,Rx,0,8,8F,53,00,00,00,56,00,00,
8661563,00000380,false,Rx,0,8,00,4E,00,09,00,00,00,00,
8665419,00000480,false,Rx,0,8,A4,20,00,00,19,06,00,9B,
8666833,00000050,false,Rx,0,4,00,01,D0,D1,00,00,00,00,
8667701,000001A0,false,Rx,0,8,00,40,00,00,FE,FE,00,13,
8668256,00000320,false,Rx,0,8,00,06,2D,01,00,00,00,00,
8668585,000005D8,false,Rx,0,8,15,04,00,03,01,00,00,00,
8668831,000005D0,false,Rx,0,6,80,47,51,30,24,41,00,00,
8669160,00000520,false,Rx,0,8,15,C0,01,42,00,75,34,04,
8671160,00000280,false,Rx,0,8,01,6F,00,00,6F,00,2B,00,
8671331,00000488,false,Rx,0,8,86,00,00,80,A6,00,00,A0,
8674770,000001A0,false,Rx,0,8,00,40,00,00,FE,FE,00,14,
8675018,000004A0,false,Rx,0,8,00,00,00,00,00,00,00,00,
8675271,00000588,false,Rx,0,8,E9,11,80,00,63,00,00,00,
8675525,000005A0,false,Rx,0,8,7F,00,00,C0,5D,00,00,30,
8681155,00000288,false,Rx,0,8,8F,53,00,00,00,56,00,00,
8681404,00000380,false,Rx,0,8,00,4E,00,09,00,00,00,00,
8681659,000001A0,false,Rx,0,8,00,40,00,00,FE,FE,00,15,
8685505,00000480,false,Rx,0,8,A4,20,00,00,19,06,00,9B,
8686900,00000050,false,Rx,0,4,00,01,E0,E1,00,00,00,00,
8688750,000001A0,false,Rx,0,8,00,40,00,00,FE,FE,00,16,
8688999,000004A0,false,Rx,0,8,00,00,00,00,00,00,00,00,
8689177,000005A0,false,Rx,0,8,7F,00,00,6E,6B,00,00,30,
8691100,00000280,false,Rx,0,8,01,6F,00,00,6F,00,2B,00,
8691346,00000488,false,Rx,0,8,96,00,00,80,A6,00,00,B0,
8692932,00000320,false,Rx,0,8,00,06,2D,01,00,00,00,00,
8695206,00000588,false,Rx,0,8,E9,11,80,00,63,00,00,00,
8695787,000001A0,false,Rx,0,8,00,40,00,00,FE,FE,00,17,
8701115,00000288,false,Rx,0,8,DE,53,00,00,00,56,00,00,
8701366,00000380,false,Rx,0,8,00,4E,00,09,00,00,00,00,
8702682,000001A0,false,Rx,0,8,00,40,00,00,FE,FE,00,18,
8702933,000004A0,false,Rx,0,8,00,00,00,00,00,00,00,00,
8703184,000005A0,false,Rx,0,8,7F,00,00,1C,79,00,00,30,
8705600,00000480,false,Rx,0,8,ED,20,00,00,19,06,00,D2,
8706952,00000050,false,Rx,0,4,00,01,F0,F1,00,00,00,00,
8709708,000001A0,false,Rx,0,8,00,40,00,00,FE,FE,00,19,
8711100,00000280,false,Rx,0,8,01,6F,00,00,6F,00,2B,00,
8711347,00000488,false,Rx,0,8,E6,00,00,80,A6,00,00,C0,
8715162,00000588,false,Rx,0,8,E9,11,80,00,63,00,00,00,
8716783,000001A0,false,Rx,0,8,00,40,00,00,FE,FE,00,1A,
8717031,000004A0,false,Rx,0,8,00,00,00,00,00,00,00,00,
8717208,000005A0,false,Rx,0,8,7F,00,00,CA,86,00,00,30,
8717688,00000320,false,Rx,0,8,00,06,2D,01,00,00,00,00,
8721155,00000288,false,Rx,0,8,DE,53,00,00,00,56,00,00,
8721406,00000380,false,Rx,0,8,00,4E,00,09,00,00,00,00,
8723706,000001A0,false,Rx,0,8,00,40,00,00,FE,FE,00,1B,
8725662,00000480,false,Rx,0,8,ED,20,00,00,19,06,00,D2,
8726957,00000050,false,Rx,0,4,00,01,00,01,00,00,00,00,
8730724,000001A0,false,Rx,0,8,00,40,00,00,FE,FE,00,1C,
8730972,000004A0,false,Rx,0,8,00,00,00,00,00,00,00,00,
8731227,00000280,false,Rx,0,8,01,6F,00,00,6F,00,2B,00,
8731400,00000488,false,Rx,0,8,F6,00,00,80,A6,00,00,D0,
8731654,000005A0,false,Rx,0,8,7F,00,00,78,94,00,00,30,
8735285,00000588,false,Rx,0,8,E9,11,80,00,63,00,00,00,
8737776,000001A0,false,Rx,0,8,00,40,00,00,FE,FE,00,1D,
8741175,00000288,false,Rx,0,8,DE,53,00,00,00,56,00,00,
8741439,00000380,false,Rx,0,8,00,4E,00,09,00,00,00,00,
8742073,00000570,false,Rx,0,4,07,00,EB,00,00,00,00,00,
8743435,00000320,false,Rx,0,8,00,06,2D,01,00,00,00,00,
8746203,000001A0,false,Rx,0,8,00,40,00,00,FE,FE,00,1E,
8746231,000004A0,false,Rx,0,8,00,00,00,00,00,00,00,00,
8746249,00000480,false,Rx,0,8,ED,20,00,00,19,06,00,D2,
8746268,000005A0,false,Rx,0,8,7F,00,00,26,A2,00,00,30,
8746942,00000050,false,Rx,0,4,00,01,10,11,00,00,00,00,
8751197,00000280,false,Rx,0,8,01,6F,00,00,6F,00,2B,00,
8751382,00000488,false,Rx,0,8,C6,00,00,80,A6,00,00,E0,
8751718,000001A0,false,Rx,0,8,00,40,00,00,FE,FE,00,1F,
8755271,00000588,false,Rx,0,8,E9,12,80,00,63,00,00,00,
8758818,000001A0,false,Rx,0,8,00,40,00,00,FE,FE,00,10,
8759069,000004A0,false,Rx,0,8,00,00,00,00,00,00,00,00,
8759298,000005A0,false,Rx,0,8,7F,00,00,D4,AF,00,00,30,
8761270,00000288,false,Rx,0,8,DE,53,00,00,00,56,00,00,
8761550,00000380,false,Rx,0,8,00,4E,00,09,00,00,00,00,
8767109,00000480,false,Rx,0,8,ED,20,00,00,19,06,00,D2,
8767141,000001A0,false,Rx,0,8,00,40,00,00,FE,FE,00,11,
8767159,00000050,false,Rx,0,4,00,01,20,21,00,00,00,00,
8768267,00000320,false,Rx,0,8,00,06,2D,01,00,00,00,00,
8768555,000005D8,false,Rx,0,8,15,04,00,03,01,00,00,00,
8768893,000005D0,false,Rx,0,6,80,47,51,30,24,41,00,00,
8771271,00000280,false,Rx,0,8,01,6F,00,00,6F,00,2B,00,
8771530,00000488,false,Rx,0,8,D6,00,00,80,A6,00,00,F0,
8773027,000001A0,false,Rx,0,8,00,40,00,00,FE,FE,00,12,
8773232,000004A0,false,Rx,0,8,00,00,00,00,00,00,00,00,
8773483,000005A0,false,Rx,0,8,7F,00,00,82,BD,00,00,30,
8775255,00000588,false,Rx,0,8,E9,12,80,00,63,00,00,00,
8779685,000001A0,false,Rx,0,8,00,40,00,00,FE,FE,00,13,
8781145,00000288,false,Rx,0,8,0C,53,00,00,00,56,00,00,
8781380,00000380,false,Rx,0,8,00,4E,00,09,00,00,00,00,
8786169,00000480,false,Rx,0,8,19,20,00,00,19,06,00,26,
8786755,000001A0,false,Rx,0,8,00,40,00,00,FE,FE,00,14,
8786983,000004A0,false,Rx,0,8,00,00,00,00,00,00,00,00,
8787189,00000050,false,Rx,0,4,00,01,30,31,00,00,00,00,
8787447,000005A0,false,Rx,0,8,7F,00,00,30,CB,00,00,30,
8791201,00000280,false,Rx,0,8,01,6F,00,00,6F,00,2B,00,
8791329,00000488,false,Rx,0,8,26,00,00,80,A6,00,00,00,
8793025,00000320,false,Rx,0,8,00,06,2D,01,00,00,00,00,
8793804,000001A0,false,Rx,0,8,00,40,00,00,FE,FE,00,15,
8795120,00000588,false,Rx,0,8,E9,12,80,00,63,00,00,00,
8800793,000001A0,false,Rx,0,8,00,40,00,00,FE,FE,00,16,
8801069,000004A0,false,Rx,0,8,00,00,00,00,00,00,00,00,
8801308,00000288,false,Rx,0,8,0C,53,00,00,00,56,00,00,
8801495,00000380,false,Rx,0,8,00,4E,00,09,00,00,00,00,
8801745,000005A0,false,Rx,0,8,7F,00,00,DE,D8,00,00,30,
8806343,00000480,false,Rx,0,8,19,20,00,00,19,06,00,26,
8807124,00000050,false,Rx,0,4,00,01,40,41,00,00,00,00,
8807909,000001A0,false,Rx,0,8,00,40,00,00,FE,FE,00,17,
8811278,00000280,false,Rx,0,8,01,6F,00,00,6F,00,2B,00,
8811520,00000488,false,Rx,0,8,36,00,00,80,A6,00,00,10,
8814809,000001A0,false,Rx,0,8,00,40,00,00,FE,FE,00,18,
8815037,000004A0,false,Rx,0,8,00,00,00,00,00,00,00,00,
8815325,00000588,false,Rx,0,8,E9,12,80,00,63,00,00,00,
8815582,000005A0,false,Rx,0,8,7F,00,00,8C,E6,00,00,30,
8817935,00000320,false,Rx,0,8,00,06,2D,01,00,00,00,00,
8818180,00000420,false,Rx,0,8,06,78,79,44,00,00,FF,00,
8821187,00000288,false,Rx,0,8,0C,53,00,00,00,56,00,00,
8821431,00000380,false,Rx,0,8,00,4E,00,09,00,00,00,00,
8821790,000001A0,false,Rx,0,8,00,40,00,00,FE,FE,00,19,
8827023,00000480,false,Rx,0,8,19,20,00,00,19,06,00,26,
8827045,00000050,false,Rx,0,4,00,01,50,51,00,00,00,00,
8828864,000001A0,false,Rx,0,8,00,40,00,00,FE,FE,00,1A,
8829133,000004A0,false,Rx,0,8,00,00,00,00,00,00,00,00,
8829351,000005A0,false,Rx,0,8,7F,00,00,3A,F4,00,00,30,
8831173,00000280,false,Rx,0,8,01,6F,00,00,6F,00,2B,00,
8831378,00000488,false,Rx,0,8,06,00,00,80,A6,00,00,20,
8835296,00000588,false,Rx,0,8,E9,12,80,00,63,00,00,00,
8835838,000001A0,false,Rx,0,8,00,40,00,00,FE,FE,00,1B,
8841288,00000288,false,Rx,0,8,0C,53,00,00,00,56,00,00,
8841529,00000380,false,Rx,0,8,00,4E,00,09,00,00,00,00,
8841723,00000570,false,Rx,0,4,07,00,EB,00,00,00,00,00,
8842799,000001A0,false,Rx,0,8,00,40,00,00,FE,FE,00,1C,
8843001,000004A0,false,Rx,0,8,00,00,00,00,00,00,00,00,
8843251,00000320,false,Rx,0,8,00,06,2D,01,00,00,00,00,
8843508,000005A0,false,Rx,0,8,7F,00,00,E8,01,00,00,30,
8845974,00000480,false,Rx,0,8,19,20,00,00,19,06,00,26,
8847031,00000050,false,Rx,0,4,00,01,60,61,00,00,00,00,
8849790,000001A0,false,Rx,0,8,00,40,00,00,FE,FE,00,1D,
8851105,00000280,false,Rx,0,8,01,6F,00,00,6F,00,2B,00,
8851352,00000488,false,Rx,0,8,16,00,00,80,A6,00,00,30,
8855165,00000588,false,Rx,0,8,E9,12,80,00,63,00,00,00,
8856859,000001A0,false,Rx,0,8,00,40,00,00,FE,FE,00,1E,
8857113,000004A0,false,Rx,0,8,00,00,00,00,00,00,00,00,
8857285,000005A0,false,Rx,0,8,7F,00,00,96,0F,00,00,30,
8861175,00000288,false,Rx,0,8,75,53,00,00,00,56,00,00,
8861422,00000380,false,Rx,0,8,00,4E,00,09,00,00,00,00,
8863727,000001A0,false,Rx,0,8,00,40,00,00,FE,FE,00,1F,
8866046,00000480,false,Rx,0,8,53,20,00,00,19,06,00,6C,
8867119,00000050,false,Rx,0,4,00,01,70,71,00,00,00,00,
8868112,00000320,false,Rx,0,8,00,06,2D,01,00,00,00,00,
8868435,000005D8,false,Rx,0,8,15,04,00,03,01,00,00,00,
8868689,000005D0,false,Rx,0,6,80,47,51,30,24,41,00,00,
8869010,00000520,false,Rx,0,8,02,04,01,42,00,75,34,04,
8870855,000001A0,false,Rx,0,8,00,40,00,00,FE,FE,00,10,
8871110,000004A0,false,Rx,0,8,00,00,00,00,00,00,00,00,
8871356,00000280,false,Rx,0,8,01,6F,00,00,6F,00,2B,00,
8871535,00000488,false,Rx,0,8,66,00,00,80,A6,00,00,40,
8871782,000005A0,false,Rx,0,8,7F,00,00,44,1D,00,00,30,
8875138,00000588,false,Rx,0,8,E9,12,80,00,63,00,00,00,
8877815,000001A0,false,Rx,0,8,00,40,00,00,FE,FE,00,11,
8881100,00000288,false,Rx,0,8,75,54,00,00,00,56,00,00,
8881346,00000380,false,Rx,0,8,00,4E,00,09,00,00,00,00,
8895242,00001000,true,Rx,0,8,00,00,02,F3,00,01,10,0E,
8896529,00001001,true,Rx,0,8,00,00,00,00,00,00,00,00,
8886130,000001A0,false,Rx,0,8,00,40,00,00,FE,FE,00,12,
8886156,000004A0,false,Rx,0,8,00,00,00,00,00,00,00,00,
8886173,00000480,false,Rx,0,8,53,20,00,00,19,06,00,6C,
8886190,000005A0,false,Rx,0,8,7F,00,00,F2,2A,00,00,30,
8887063,00000050,false,Rx,0,4,00,01,80,81,00,00,00,00,
8891160,00000280,false,Rx,0,8,01,6F,00,00,6F,00,2B,00,
8891342,00000488,false,Rx,0,8,76,00,00,80,A6,00,00,50,
8891896,000001A0,false,Rx,0,8,00,40,00,00,FE,FE,00,13,
8893055,00000320,false,Rx,0,8,00,06,2D,01,00,00,00,00,
8897884,00000588,false,Rx,0,8,E9,12,80,00,63,00,00,00,
8898758,000001A0,false,Rx,0,8,00,40,00,00,FE,FE,00,14,
8899000,000004A0,false,Rx,0,8,00,00,00,00,00,00,00,00,
8899361,000005A0,false,Rx,0,8,7F,00,00,A0,38,00,00,30,
8901169,00000288,false,Rx,0,8,75,54,00,00,00,56,00,00,
8901358,00000380,false,Rx,0,8,00,4E,00,09,00,00,00,00,
8906145,00000480,false,Rx,0,8,53,20,00,00,19,06,00,6C,
8906171,000001A0,false,Rx,0,8,00,40,00,00,FE,FE,00,15,
8907175,00000050,false,Rx,0,4,00,01,90,91,00,00,00,00,
8911107,00000280,false,Rx,0,8,01,6F,00,00,6F,00,2B,00,
8911363,00000488,false,Rx,0,8,46,00,00,80,A6,00,00,60,
8912902,000001A0,false,Rx,0,8,00,40,00,00,FE,FE,00,16,
8913155,000004A0,false,Rx,0,8,00,00,00,00,00,00,00,00,
8913407,000005A0,false,Rx,0,8,7F,00,00,4E,46,00,00,30,
8915100,00000588,false,Rx,0,8,E9,12,80,00,63,00,00,00,
8917705,00000320,false,Rx,0,8,00,06,2D,01,00,00,00,00,
8919778,000001A0,false,Rx,0,8,00,40,00,00,FE,FE,00,17,
8921169,00000288,false,Rx,0,8,75,54,00,00,00,56,00,00,
8921420,00000380,false,Rx,0,8,00,4E,00,09,00,00,00,00,
8926154,00000480,false,Rx,0,8,53,20,00,00,19,06,00,6C,
