Time Stamp,ID,Extended,Dir,Bus,LEN,D1,D2,D3,D4,D5,D6,D7,D8
916751758,000001A0,false,Rx,0,8,0,40,0,0,FE,FE,0,1E
916758844,000001A0,false,Rx,0,8,0,40,0,0,FE,FE,0,1F
916765718,000001A0,false,Rx,0,8,0,40,0,0,FE,FE,0,10
916772807,000001A0,false,Rx,0,8,0,40,0,0,FE,FE,0,11
916779852,000001A0,false,Rx,0,8,0,40,0,0,FE,FE,0,12
916786692,000001A0,false,Rx,0,8,0,40,0,0,FE,FE,0,13
916793805,000001A0,false,Rx,0,8,0,40,0,0,FE,FE,0,14
916800821,000001A0,false,Rx,0,8,0,40,0,0,FE,FE,0,15
916807772,000001A0,false,Rx,0,8,0,40,0,0,FE,FE,0,16
916814802,000001A0,false,Rx,0,8,0,40,0,0,FE,FE,0,17
916821900,000001A0,false,Rx,0,8,0,40,0,0,FE,FE,0,18
916829784,000001A0,false,Rx,0,8,0,40,0,0,FE,FE,0,19
916835810,000001A0,false,Rx,0,8,0,40,0,0,FE,FE,0,1A
916842858,000001A0,false,Rx,0,8,0,40,0,0,FE,FE,0,1B
916849898,000001A0,false,Rx,0,8,0,40,0,0,FE,FE,0,1C
916856833,000001A0,false,Rx,0,8,0,40,0,0,FE,FE,0,1D
916863902,000001A0,false,Rx,0,8,0,40,0,0,FE,FE,0,1E
916870902,000001A0,false,Rx,0,8,0,40,0,0,FE,FE,0,1F
916877892,000001A0,false,Rx,0,8,0,40,0,0,FE,FE,0,10
916884736,000001A0,false,Rx,0,8,0,40,0,0,FE,FE,0,11
916891858,000001A0,false,Rx,0,8,0,40,0,0,FE,FE,0,12
916898916,000001A0,false,Rx,0,8,0,40,0,0,FE,FE,0,13
916905846,000001A0,false,Rx,0,8,0,40,0,0,FE,FE,0,14
916912864,000001A0,false,Rx,0,8,0,40,0,0,FE,FE,0,15
916919901,000001A0,false,Rx,0,8,0,40,0,0,FE,FE,0,16
916926813,000001A0,false,Rx,0,8,0,40,0,0,FE,FE,0,17
916933898,000001A0,false,Rx,0,8,0,40,0,0,FE,FE,0,18
916940909,000001A0,false,Rx,0,8,0,40,0,0,FE,FE,0,19
916947840,000001A0,false,Rx,0,8,0,40,0,0,FE,FE,0,1A
916954847,000001A0,false,Rx,0,8,0,40,0,0,FE,FE,0,1B
916961916,000001A0,false,Rx,0,8,0,40,0,0,FE,FE,0,1C
916970004,000001A0,false,Rx,0,8,0,40,0,0,FE,FE,0,1D
916975929,000001A0,false,Rx,0,8,0,40,0,0,FE,FE,0,1E
916982925,000001A0,false,Rx,0,8,0,40,0,0,FE,FE,0,1F
916990100,000001A0,false,Rx,0,8,0,40,0,0,FE,FE,0,10
916996941,000001A0,false,Rx,0,8,0,40,0,0,FE,FE,0,11
917003918,000001A0,false,Rx,0,8,0,40,0,0,FE,FE,0,12
917010901,000001A0,false,Rx,0,8,0,40,0,0,FE,FE,0,13
917018216,000001A0,false,Rx,0,8,0,40,0,0,FE,FE,0,14
917024901,000001A0,false,Rx,0,8,0,40,0,0,FE,FE,0,15
917031982,000001A0,false,Rx,0,8,0,40,0,0,FE,FE,0,16
917038992,000001A0,false,Rx,0,8,0,40,0,0,FE,FE,0,17
917045892,000001A0,false,Rx,0,8,0,40,0,0,FE,FE,0,18
917052991,000001A0,false,Rx,0,8,0,40,0,0,FE,FE,0,19
917059955,000001A0,false,Rx,0,8,0,40,0,0,FE,FE,0,1A
917067128,000001A0,false,Rx,0,8,0,40,0,0,FE,FE,0,1B
917073958,000001A0,false,Rx,0,8,0,40,0,0,FE,FE,0,1C
917080964,000001A0,false,Rx,0,8,0,40,0,0,FE,FE,0,1D
917087952,000001A0,false,Rx,0,8,0,40,0,0,FE,FE,0,1E
917094952,000001A0,false,Rx,0,8,0,40,0,0,FE,FE,0,1F
917101981,000001A0,false,Rx,0,8,0,40,0,0,FE,FE,0,10
917110250,000001A0,false,Rx,0,8,0,40,0,0,FE,FE,0,11
917116003,000001A0,false,Rx,0,8,0,40,0,0,FE,FE,0,12
917123060,000001A0,false,Rx,0,8,0,40,0,0,FE,FE,0,13
917130329,000001A0,false,Rx,0,8,0,40,0,0,FE,FE,0,14
917137009,000001A0,false,Rx,0,8,0,40,0,0,FE,FE,0,15
917144021,000001A0,false,Rx,0,8,0,40,0,0,FE,FE,0,16
917150994,000001A0,false,Rx,0,8,0,40,0,0,FE,FE,0,17
917158093,000001A0,false,Rx,0,8,0,40,0,0,FE,FE,0,18
917164935,000001A0,false,Rx,0,8,0,40,0,0,FE,FE,0,19
917172189,000001A0,false,Rx,0,8,0,40,0,0,FE,FE,0,1A
917179078,000001A0,false,Rx,0,8,0,40,0,0,FE,FE,0,1B
917185947,000001A0,false,Rx,0,8,0,40,0,0,FE,FE,0,1C
917193016,000001A0,false,Rx,0,8,0,40,0,0,FE,FE,0,1D
917200078,000001A0,false,Rx,0,8,0,40,0,0,FE,FE,0,1E
917206988,000001A0,false,Rx,0,8,0,40,0,0,FE,FE,0,1F
917214038,000001A0,false,Rx,0,8,0,40,0,0,FE,FE,0,10
917221077,000001A0,false,Rx,0,8,0,40,0,0,FE,FE,0,11
917227993,000001A0,false,Rx,0,8,0,40,0,0,FE,FE,0,12
917235026,000001A0,false,Rx,0,8,0,40,0,0,FE,FE,0,13
917242098,000001A0,false,Rx,0,8,0,40,0,0,FE,FE,0,14
917250415,000001A0,false,Rx,0,8,0,40,0,0,FE,FE,0,15
917256083,000001A0,false,Rx,0,8,0,40,0,0,FE,FE,0,16
917263082,000001A0,false,Rx,0,8,0,40,0,0,FE,FE,0,17
917270450,000001A0,false,Rx,0,8,0,40,0,0,FE,FE,0,18
917277049,000001A0,false,Rx,0,8,0,40,0,0,FE,FE,0,19
917284115,000001A0,false,Rx,0,8,0,40,0,0,FE,FE,0,1A
917291074,000001A0,false,Rx,0,8,0,40,0,0,FE,FE,0,1B
917298213,000001A0,false,Rx,0,8,0,40,0,0,FE,FE,0,1C
917304984,000001A0,false,Rx,0,8,0,40,0,0,FE,FE,0,1D
917312263,000001A0,false,Rx,0,8,0,40,0,0,FE,FE,0,1E
917319146,000001A0,false,Rx,0,8,0,40,0,0,FE,FE,0,1F
917326000,000001A0,false,Rx,0,8,0,40,0,0,FE,FE,0,10
917333103,000001A0,false,Rx,0,8,0,40,0,0,FE,FE,0,11
917340143,000001A0,false,Rx,0,8,0,40,0,0,FE,FE,0,12
917347086,000001A0,false,Rx,0,8,0,40,0,0,FE,FE,0,13
917354133,000001A0,false,Rx,0,8,0,40,0,0,FE,FE,0,14
917361321,000001A0,false,Rx,0,8,0,40,0,0,FE,FE,0,15
917368154,000001A0,false,Rx,0,8,0,40,0,0,FE,FE,0,16
917375169,000001A0,false,Rx,0,8,0,40,0,0,FE,FE,0,17
917382167,000001A0,false,Rx,0,8,0,40,0,0,FE,FE,0,18
917390596,000001A0,false,Rx,0,8,0,40,0,0,FE,FE,0,19
917396184,000001A0,false,Rx,0,8,0,40,0,0,FE,FE,0,1A
917403146,000001A0,false,Rx,0,8,0,40,0,0,FE,FE,0,1B
917410638,000001A0,false,Rx,0,8,0,40,0,0,FE,FE,0,1C
917417340,000001A0,false,Rx,0,8,0,40,0,0,FE,FE,0,1D
917424213,000001A0,false,Rx,0,8,0,40,0,0,FE,FE,0,1E
917431173,000001A0,false,Rx,0,8,0,40,0,0,FE,FE,0,1F
917438279,000001A0,false,Rx,0,8,0,40,0,0,FE,FE,0,10
917445149,000001A0,false,Rx,0,8,0,40,0,0,FE,FE,0,11
917452151,000001A0,false,Rx,0,8,0,40,0,0,FE,FE,0,12
917459218,000001A0,false,Rx,0,8,0,40,0,0,FE,FE,0,13
917466090,000001A0,false,Rx,0,8,0,40,0,0,FE,FE,0,14
917473186,000001A0,false,Rx,0,8,0,40,0,0,FE,FE,0,15
917480231,000001A0,false,Rx,0,8,0,40,0,0,FE,FE,0,16
917487321,000001A0,false,Rx,0,8,0,40,0,0,FE,FE,0,17
917494216,000001A0,false,Rx,0,8,0,40,0,0,FE,FE,0,18
917501323,000001A0,false,Rx,0,8,0,40,0,0,FE,FE,0,19
917508139,000001A0,false,Rx,0,8,0,40,0,0,FE,FE,0,1A
917515160,000001A0,false,Rx,0,8,0,40,0,0,FE,FE,0,1B
917522269,000001A0,false,Rx,0,8,0,40,0,0,FE,FE,0,1C
917529207,000001A0,false,Rx,0,8,0,40,0,0,FE,FE,0,1D
917536232,000001A0,false,Rx,0,8,0,40,0,0,FE,FE,0,1E
917543308,000001A0,false,Rx,0,8,0,40,0,0,FE,FE,0,1F
917550947,000001A0,false,Rx,0,8,0,40,0,0,FE,FE,0,10
917557374,000001A0,false,Rx,0,8,0,40,0,0,FE,FE,0,11
917564271,000001A0,false,Rx,0,8,0,40,0,0,FE,FE,0,12
917571370,000001A0,false,Rx,0,8,0,40,0,0,FE,FE,0,13
917578363,000001A0,false,Rx,0,8,0,40,0,0,FE,FE,0,14
917585206,000001A0,false,Rx,0,8,0,40,0,0,FE,FE,0,15
917592270,000001A0,false,Rx,0,8,0,40,0,0,FE,FE,0,16
917599317,000001A0,false,Rx,0,8,0,40,0,0,FE,FE,0,17
917606213,000001A0,false,Rx,0,8,0,40,0,0,FE,FE,0,18
917613283,000001A0,false,Rx,0,8,0,40,0,0,FE,FE,0,19
917620413,000001A0,false,Rx,0,8,0,40,0,0,FE,FE,0,1A
917627359,000001A0,false,Rx,0,8,0,40,0,0,FE,FE,0,1B
917634300,000001A0,false,Rx,0,8,0,40,0,0,FE,FE,0,1C
917641335,000001A0,false,Rx,0,8,0,40,0,0,FE,FE,0,1D
917648257,000001A0,false,Rx,0,8,0,40,0,0,FE,FE,0,1E
917655244,000001A0,false,Rx,0,8,0,40,0,0,FE,FE,0,1F
917662300,000001A0,false,Rx,0,8,0,40,0,0,FE,FE,0,10
917669258,000001A0,false,Rx,0,8,0,40,0,0,FE,FE,0,11
917676268,000001A0,false,Rx,0,8,0,40,0,0,FE,FE,0,12
917683303,000001A0,false,Rx,0,8,0,40,0,0,FE,FE,0,13
917691302,000001A0,false,Rx,0,8,0,40,0,0,FE,FE,0,14
917697339,000001A0,false,Rx,0,8,0,40,0,0,FE,FE,0,15
917704380,000001A0,false,Rx,0,8,0,40,0,0,FE,FE,0,16
917711398,000001A0,false,Rx,0,8,0,40,0,0,FE,FE,0,17
917718443,000001A0,false,Rx,0,8,0,40,0,0,FE,FE,0,18
917725398,000001A0,false,Rx,0,8,0,40,0,0,FE,FE,0,19
917732298,000001A0,false,Rx,0,8,0,40,0,0,FE,FE,0,1A
917739419,000001A0,false,Rx,0,8,0,40,0,0,FE,FE,0,1B
917746313,000001A0,false,Rx,0,8,0,40,0,0,FE,FE,0,1C
917753436,000001A0,false,Rx,0,8,0,40,0,0,FE,FE,0,1D
917760427,000001A0,false,Rx,0,8,0,40,0,0,FE,FE,0,1E
917767360,000001A0,false,Rx,0,8,0,40,0,0,FE,FE,0,1F
917774434,000001A0,false,Rx,0,8,0,40,0,0,FE,FE,0,10
917781402,000001A0,false,Rx,0,8,0,40,0,0,FE,FE,0,11
917788365,000001A0,false,Rx,0,8,0,40,0,0,FE,FE,0,12
917795368,000001A0,false,Rx,0,8,0,40,0,0,FE,FE,0,13
917802366,000001A0,false,Rx,0,8,0,40,0,0,FE,FE,0,14
917809303,000001A0,false,Rx,0,8,0,40,0,0,FE,FE,0,15
917816484,000001A0,false,Rx,0,8,0,40,0,0,FE,FE,0,16
917823454,000001A0,false,Rx,0,8,0,40,0,0,FE,FE,0,17
917831581,000001A0,false,Rx,0,8,0,40,0,0,FE,FE,0,18
917837590,000001A0,false,Rx,0,8,0,40,0,0,FE,FE,0,19
917844491,000001A0,false,Rx,0,8,0,40,0,0,FE,FE,0,1A
917851754,000001A0,false,Rx,0,8,0,40,0,0,FE,FE,0,1B
917858464,000001A0,false,Rx,0,8,0,40,0,0,FE,FE,0,1C
917865372,000001A0,false,Rx,0,8,0,40,0,0,FE,FE,0,1D
917872476,000001A0,false,Rx,0,8,0,40,0,0,FE,FE,0,1E
917879447,000001A0,false,Rx,0,8,0,40,0,0,FE,FE,0,1F
917886387,000001A0,false,Rx,0,8,0,40,0,0,FE,FE,0,10
917893416,000001A0,false,Rx,0,8,0,40,0,0,FE,FE,0,11
917900473,000001A0,false,Rx,0,8,0,40,0,0,FE,FE,0,12
917907586,000001A0,false,Rx,0,8,0,40,0,0,FE,FE,0,13
917914483,000001A0,false,Rx,0,8,0,40,0,0,FE,FE,0,14
917921516,000001A0,false,Rx,0,8,0,40,0,0,FE,FE,0,15
917928479,000001A0,false,Rx,0,8,0,40,0,0,FE,FE,0,16
917935496,000001A0,false,Rx,0,8,0,40,0,0,FE,FE,0,17
917942513,000001A0,false,Rx,0,8,0,40,0,0,FE,FE,0,18
917949474,000001A0,false,Rx,0,8,0,40,0,0,FE,FE,0,19
917956451,000001A0,false,Rx,0,8,0,40,0,0,FE,FE,0,1A
917963491,000001A0,false,Rx,0,8,0,40,0,0,FE,FE,0,1B
917971771,000001A0,false,Rx,0,8,0,40,0,0,FE,FE,0,1C
917977577,000001A0,false,Rx,0,8,0,40,0,0,FE,FE,0,1D
917984519,000001A0,false,Rx,0,8,0,40,0,0,FE,FE,0,1E
917991927,000001A0,false,Rx,0,8,0,40,0,0,FE,FE,0,1F
917998569,000001A0,false,Rx,0,8,0,40,0,0,FE,FE,0,10
918005422,000001A0,false,Rx,0,8,0,40,0,0,FE,FE,0,11
918012496,000001A0,false,Rx,0,8,0,40,0,0,FE,FE,0,12
918019599,000001A0,false,Rx,0,8,0,40,0,0,FE,FE,0,13
918026474,000001A0,false,Rx,0,8,0,40,0,0,FE,FE,0,14
918033496,000001A0,false,Rx,0,8,0,40,0,0,FE,FE,0,15
918040539,000001A0,false,Rx,0,8,0,40,0,0,FE,FE,0,16
918047597,000001A0,false,Rx,0,8,0,40,0,0,FE,FE,0,17
918054570,000001A0,false,Rx,0,8,0,40,0,0,FE,FE,0,18
918061563,000001A0,false,Rx,0,8,0,40,0,0,FE,FE,0,19
918068497,000001A0,false,Rx,0,8,0,40,0,0,FE,FE,0,1A
918075517,000001A0,false,Rx,0,8,0,40,0,0,FE,FE,0,1B
918082587,000001A0,false,Rx,0,8,0,40,0,0,FE,FE,0,1C
918089524,000001A0,false,Rx,0,8,0,40,0,0,FE,FE,0,1D
918096556,000001A0,false,Rx,0,8,0,40,0,0,FE,FE,0,1E
918103562,000001A0,false,Rx,0,8,0,40,0,0,FE,FE,0,1F
918112074,000001A0,false,Rx,0,8,0,40,0,0,FE,FE,0,10
918117516,000001A0,false,Rx,0,8,0,40,0,0,FE,FE,0,11
918124613,000001A0,false,Rx,0,8,0,40,0,0,FE,FE,0,12
918132152,000001A0,false,Rx,0,8,0,40,0,0,FE,FE,0,13
918138661,000001A0,false,Rx,0,8,0,40,0,0,FE,FE,0,14
918145536,000001A0,false,Rx,0,8,0,40,0,0,FE,FE,0,15
918152607,000001A0,false,Rx,0,8,0,40,0,0,FE,FE,0,16
918159611,000001A0,false,Rx,0,8,0,40,0,0,FE,FE,0,17
918166484,000001A0,false,Rx,0,8,0,40,0,0,FE,FE,0,18
918173628,000001A0,false,Rx,0,8,0,40,0,0,FE,FE,0,19
918180885,000001A0,false,Rx,0,8,0,40,0,0,FE,FE,0,1A
918187537,000001A0,false,Rx,0,8,0,40,0,0,FE,FE,0,1B
918194609,000001A0,false,Rx,0,8,0,40,0,0,FE,FE,0,1C
918201645,000001A0,false,Rx,0,8,0,40,0,0,FE,FE,0,1D
918208538,000001A0,false,Rx,0,8,0,40,0,0,FE,FE,0,1E
918215632,000001A0,false,Rx,0,8,0,40,0,0,FE,FE,0,1F
918222673,000001A0,false,Rx,0,8,0,40,0,0,FE,FE,0,10
918229543,000001A0,false,Rx,0,8,0,40,0,0,FE,FE,0,11
918236673,000001A0,false,Rx,0,8,0,40,0,0,FE,FE,0,12
918243641,000001A0,false,Rx,0,8,0,40,0,0,FE,FE,0,13
918250610,000001A0,false,Rx,0,8,0,40,0,0,FE,FE,0,14
918257632,000001A0,false,Rx,0,8,0,40,0,0,FE,FE,0,15
918264649,000001A0,false,Rx,0,8,0,40,0,0,FE,FE,0,16
918272355,000001A0,false,Rx,0,8,0,40,0,0,FE,FE,0,17
918278701,000001A0,false,Rx,0,8,0,40,0,0,FE,FE,0,18
918285547,000001A0,false,Rx,0,8,0,40,0,0,FE,FE,0,19
918292655,000001A0,false,Rx,0,8,0,40,0,0,FE,FE,0,1A
918299699,000001A0,false,Rx,0,8,0,40,0,0,FE,FE,0,1B
918306570,000001A0,false,Rx,0,8,0,40,0,0,FE,FE,0,1C
918313704,000001A0,false,Rx,0,8,0,40,0,0,FE,FE,0,1D
918320696,000001A0,false,Rx,0,8,0,40,0,0,FE,FE,0,1E
918327586,000001A0,false,Rx,0,8,0,40,0,0,FE,FE,0,1F
918334697,000001A0,false,Rx,0,8,0,40,0,0,FE,FE,0,10
918341716,000001A0,false,Rx,0,8,0,40,0,0,FE,FE,0,11
918348706,000001A0,false,Rx,0,8,0,40,0,0,FE,FE,0,12
918355703,000001A0,false,Rx,0,8,0,40,0,0,FE,FE,0,13
918362735,000001A0,false,Rx,0,8,0,40,0,0,FE,FE,0,14
918369650,000001A0,false,Rx,0,8,0,40,0,0,FE,FE,0,15
918376668,000001A0,false,Rx,0,8,0,40,0,0,FE,FE,0,16
918383773,000001A0,false,Rx,0,8,0,40,0,0,FE,FE,0,17
918390668,000001A0,false,Rx,0,8,0,40,0,0,FE,FE,0,18
918397748,000001A0,false,Rx,0,8,0,40,0,0,FE,FE,0,19
918404761,000001A0,false,Rx,0,8,0,40,0,0,FE,FE,0,1A
918412667,000001A0,false,Rx,0,8,0,40,0,0,FE,FE,0,1B
918418931,000001A0,false,Rx,0,8,0,40,0,0,FE,FE,0,1C
918425647,000001A0,false,Rx,0,8,0,40,0,0,FE,FE,0,1D
918432782,000001A0,false,Rx,0,8,0,40,0,0,FE,FE,0,1E
918439817,000001A0,false,Rx,0,8,0,40,0,0,FE,FE,0,1F
918446662,000001A0,false,Rx,0,8,0,40,0,0,FE,FE,0,10
918453721,000001A0,false,Rx,0,8,0,40,0,0,FE,FE,0,11
918460759,000001A0,false,Rx,0,8,0,40,0,0,FE,FE,0,12
918467887,000001A0,false,Rx,0,8,0,40,0,0,FE,FE,0,13
918474744,000001A0,false,Rx,0,8,0,40,0,0,FE,FE,0,14
918481824,000001A0,false,Rx,0,8,0,40,0,0,FE,FE,0,15
918488714,000001A0,false,Rx,0,8,0,40,0,0,FE,FE,0,16
918495787,000001A0,false,Rx,0,8,0,40,0,0,FE,FE,0,17
918502783,000001A0,false,Rx,0,8,0,40,0,0,FE,FE,0,18
918509719,000001A0,false,Rx,0,8,0,40,0,0,FE,FE,0,19
918516823,000001A0,false,Rx,0,8,0,40,0,0,FE,FE,0,1A
918523872,000001A0,false,Rx,0,8,0,40,0,0,FE,FE,0,1B
918530769,000001A0,false,Rx,0,8,0,40,0,0,FE,FE,0,1C
918537901,000001A0,false,Rx,0,8,0,40,0,0,FE,FE,0,1D
918544762,000001A0,false,Rx,0,8,0,40,0,0,FE,FE,0,1E
918552862,000001A0,false,Rx,0,8,0,40,0,0,FE,FE,0,1F
918558886,000001A0,false,Rx,0,8,0,40,0,0,FE,FE,0,10
918565723,000001A0,false,Rx,0,8,0,40,0,0,FE,FE,0,11
918572890,000001A0,false,Rx,0,8,0,40,0,0,FE,FE,0,12
918579868,000001A0,false,Rx,0,8,0,40,0,0,FE,FE,0,13
918586735,000001A0,false,Rx,0,8,0,40,0,0,FE,FE,0,14
918594064,000001A0,false,Rx,0,8,0,40,0,0,FE,FE,0,15
918600892,000001A0,false,Rx,0,8,0,40,0,0,FE,FE,0,16
918607800,000001A0,false,Rx,0,8,0,40,0,0,FE,FE,0,17
918614823,000001A0,false,Rx,0,8,0,40,0,0,FE,FE,0,18
918621964,000001A0,false,Rx,0,8,0,40,0,0,FE,FE,0,19
918628785,000001A0,false,Rx,0,8,0,40,0,0,FE,FE,0,1A
918635876,000001A0,false,Rx,0,8,0,40,0,0,FE,FE,0,1B
918642933,000001A0,false,Rx,0,8,0,40,0,0,FE,FE,0,1C
918649839,000001A0,false,Rx,0,8,0,40,0,0,FE,FE,0,1D
918656872,000001A0,false,Rx,0,8,0,40,0,0,FE,FE,0,1E
918663901,000001A0,false,Rx,0,8,0,40,0,0,FE,FE,0,1F
918670890,000001A0,false,Rx,0,8,0,40,0,0,FE,FE,0,10
918677919,000001A0,false,Rx,0,8,0,40,0,0,FE,FE,0,11
918684785,000001A0,false,Rx,0,8,0,40,0,0,FE,FE,0,12
918693143,000001A0,false,Rx,0,8,0,40,0,0,FE,FE,0,13
918698947,000001A0,false,Rx,0,8,0,40,0,0,FE,FE,0,14
918705785,000001A0,false,Rx,0,8,0,40,0,0,FE,FE,0,15
918713209,000001A0,false,Rx,0,8,0,40,0,0,FE,FE,0,16
918720014,000001A0,false,Rx,0,8,0,40,0,0,FE,FE,0,17
918726813,000001A0,false,Rx,0,8,0,40,0,0,FE,FE,0,18
918733917,000001A0,false,Rx,0,8,0,40,0,0,FE,FE,0,19
918740950,000001A0,false,Rx,0,8,0,40,0,0,FE,FE,0,1A
918747927,000001A0,false,Rx,0,8,0,40,0,0,FE,FE,0,1B
918754945,000001A0,false,Rx,0,8,0,40,0,0,FE,FE,0,1C
918761957,000001A0,false,Rx,0,8,0,40,0,0,FE,FE,0,1D
918768887,000001A0,false,Rx,0,8,0,40,0,0,FE,FE,0,1E
918775897,000001A0,false,Rx,0,8,0,40,0,0,FE,FE,0,1F
918782973,000001A0,false,Rx,0,8,0,40,0,0,FE,FE,0,10
918789907,000001A0,false,Rx,0,8,0,40,0,0,FE,FE,0,11
918797021,000001A0,false,Rx,0,8,0,40,0,0,FE,FE,0,12
918803998,000001A0,false,Rx,0,8,0,40,0,0,FE,FE,0,13
918810890,000001A0,false,Rx,0,8,0,40,0,0,FE,FE,0,14
918818005,000001A0,false,Rx,0,8,0,40,0,0,FE,FE,0,15
918824968,000001A0,false,Rx,0,8,0,40,0,0,FE,FE,0,16
918833436,000001A0,false,Rx,0,8,0,40,0,0,FE,FE,0,17
918839029,000001A0,false,Rx,0,8,0,40,0,0,FE,FE,0,18
918845970,000001A0,false,Rx,0,8,0,40,0,0,FE,FE,0,19
918853495,000001A0,false,Rx,0,8,0,40,0,0,FE,FE,0,1A
918860072,000001A0,false,Rx,0,8,0,40,0,0,FE,FE,0,1B
918866947,000001A0,false,Rx,0,8,0,40,0,0,FE,FE,0,1C
918874105,000001A0,false,Rx,0,8,0,40,0,0,FE,FE,0,1D
918881075,000001A0,false,Rx,0,8,0,40,0,0,FE,FE,0,1E
918887959,000001A0,false,Rx,0,8,0,40,0,0,FE,FE,0,1F
918895037,000001A0,false,Rx,0,8,0,40,0,0,FE,FE,0,10
918902000,000001A0,false,Rx,0,8,0,40,0,0,FE,FE,0,11
918908961,000001A0,false,Rx,0,8,0,40,0,0,FE,FE,0,12
918916005,000001A0,false,Rx,0,8,0,40,0,0,FE,FE,0,13
918923036,000001A0,false,Rx,0,8,0,40,0,0,FE,FE,0,14
918929972,000001A0,false,Rx,0,8,0,40,0,0,FE,FE,0,15
918937052,000001A0,false,Rx,0,8,0,40,0,0,FE,FE,0,16
918944049,000001A0,false,Rx,0,8,0,40,0,0,FE,FE,0,17
918951016,000001A0,false,Rx,0,8,0,40,0,0,FE,FE,0,18
918958133,000001A0,false,Rx,0,8,0,40,0,0,FE,FE,0,19
918965004,000001A0,false,Rx,0,8,0,40,0,0,FE,FE,0,1A
918972080,000001A0,false,Rx,0,8,0,40,0,0,FE,FE,0,1B
918979120,000001A0,false,Rx,0,8,0,40,0,0,FE,FE,0,1C
918985962,000001A0,false,Rx,0,8,0,40,0,0,FE,FE,0,1D
918993845,000001A0,false,Rx,0,8,0,40,0,0,FE,FE,0,1E
919000160,000001A0,false,Rx,0,8,0,40,0,0,FE,FE,0,1F
919007035,000001A0,false,Rx,0,8,0,40,0,0,FE,FE,0,10
919014045,000001A0,false,Rx,0,8,0,40,0,0,FE,FE,0,11
919021292,000001A0,false,Rx,0,8,0,40,0,0,FE,FE,0,12
919027998,000001A0,false,Rx,0,8,0,40,0,0,FE,FE,0,13
919035108,000001A0,false,Rx,0,8,0,40,0,0,FE,FE,0,14
919042112,000001A0,false,Rx,0,8,0,40,0,0,FE,FE,0,15
919049103,000001A0,false,Rx,0,8,0,40,0,0,FE,FE,0,16
919056122,000001A0,false,Rx,0,8,0,40,0,0,FE,FE,0,17
919063160,000001A0,false,Rx,0,8,0,40,0,0,FE,FE,0,18
919070095,000001A0,false,Rx,0,8,0,40,0,0,FE,FE,0,19
919077300,000001A0,false,Rx,0,8,0,40,0,0,FE,FE,0,1A
919084160,000001A0,false,Rx,0,8,0,40,0,0,FE,FE,0,1B
919091293,000001A0,false,Rx,0,8,0,40,0,0,FE,FE,0,1C
919098210,000001A0,false,Rx,0,8,0,40,0,0,FE,FE,0,1D
919105024,000001A0,false,Rx,0,8,0,40,0,0,FE,FE,0,1E
919112139,000001A0,false,Rx,0,8,0,40,0,0,FE,FE,0,1F
919119192,000001A0,false,Rx,0,8,0,40,0,0,FE,FE,0,10
919126031,000001A0,false,Rx,0,8,0,40,0,0,FE,FE,0,11
919134135,000001A0,false,Rx,0,8,0,40,0,0,FE,FE,0,12
919140225,000001A0,false,Rx,0,8,0,40,0,0,FE,FE,0,13
919147295,000001A0,false,Rx,0,8,0,40,0,0,FE,FE,0,14
919154177,000001A0,false,Rx,0,8,0,40,0,0,FE,FE,0,15
919161304,000001A0,false,Rx,0,8,0,40,0,0,FE,FE,0,16
919168133,000001A0,false,Rx,0,8,0,40,0,0,FE,FE,0,17
919175292,000001A0,false,Rx,0,8,0,40,0,0,FE,FE,0,18
919182172,000001A0,false,Rx,0,8,0,40,0,0,FE,FE,0,19
919189139,000001A0,false,Rx,0,8,0,40,0,0,FE,FE,0,1A
919196161,000001A0,false,Rx,0,8,0,40,0,0,FE,FE,0,1B
919203236,000001A0,false,Rx,0,8,0,40,0,0,FE,FE,0,1C
919210169,000001A0,false,Rx,0,8,0,40,0,0,FE,FE,0,1D
919217249,000001A0,false,Rx,0,8,0,40,0,0,FE,FE,0,1E
919224283,000001A0,false,Rx,0,8,0,40,0,0,FE,FE,0,1F
919231273,000001A0,false,Rx,0,8,0,40,0,0,FE,FE,0,10
919238244,000001A0,false,Rx,0,8,0,40,0,0,FE,FE,0,11
919245146,000001A0,false,Rx,0,8,0,40,0,0,FE,FE,0,12
919252187,000001A0,false,Rx,0,8,0,40,0,0,FE,FE,0,13
919259313,000001A0,false,Rx,0,8,0,40,0,0,FE,FE,0,14
919266146,000001A0,false,Rx,0,8,0,40,0,0,FE,FE,0,15
919274384,000001A0,false,Rx,0,8,0,40,0,0,FE,FE,0,16
919280260,000001A0,false,Rx,0,8,0,40,0,0,FE,FE,0,17
919287304,000001A0,false,Rx,0,8,0,40,0,0,FE,FE,0,18
919294440,000001A0,false,Rx,0,8,0,40,0,0,FE,FE,0,19
919301325,000001A0,false,Rx,0,8,0,40,0,0,FE,FE,0,1A
919308184,000001A0,false,Rx,0,8,0,40,0,0,FE,FE,0,1B
919315221,000001A0,false,Rx,0,8,0,40,0,0,FE,FE,0,1C
919322300,000001A0,false,Rx,0,8,0,40,0,0,FE,FE,0,1D
919329192,000001A0,false,Rx,0,8,0,40,0,0,FE,FE,0,1E
919336249,000001A0,false,Rx,0,8,0,40,0,0,FE,FE,0,1F
919343333,000001A0,false,Rx,0,8,0,40,0,0,FE,FE,0,10
919350193,000001A0,false,Rx,0,8,0,40,0,0,FE,FE,0,11
919357261,000001A0,false,Rx,0,8,0,40,0,0,FE,FE,0,12
919364315,000001A0,false,Rx,0,8,0,40,0,0,FE,FE,0,13
919371307,000001A0,false,Rx,0,8,0,40,0,0,FE,FE,0,14
919378354,000001A0,false,Rx,0,8,0,40,0,0,FE,FE,0,15
919385216,000001A0,false,Rx,0,8,0,40,0,0,FE,FE,0,16
919392274,000001A0,false,Rx,0,8,0,40,0,0,FE,FE,0,17
919399387,000001A0,false,Rx,0,8,0,40,0,0,FE,FE,0,18
919406226,000001A0,false,Rx,0,8,0,40,0,0,FE,FE,0,19
919414625,000001A0,false,Rx,0,8,0,40,0,0,FE,FE,0,1A
919420411,000001A0,false,Rx,0,8,0,40,0,0,FE,FE,0,1B
919427296,000001A0,false,Rx,0,8,0,40,0,0,FE,FE,0,1C
919434667,000001A0,false,Rx,0,8,0,40,0,0,FE,FE,0,1D
919441393,000001A0,false,Rx,0,8,0,40,0,0,FE,FE,0,1E
919448314,000001A0,false,Rx,0,8,0,40,0,0,FE,FE,0,1F
919455351,000001A0,false,Rx,0,8,0,40,0,0,FE,FE,0,10
919462317,000001A0,false,Rx,0,8,0,40,0,0,FE,FE,0,11
919469328,000001A0,false,Rx,0,8,0,40,0,0,FE,FE,0,12
919476381,000001A0,false,Rx,0,8,0,40,0,0,FE,FE,0,13
919483334,000001A0,false,Rx,0,8,0,40,0,0,FE,FE,0,14
919490269,000001A0,false,Rx,0,8,0,40,0,0,FE,FE,0,15
919497489,000001A0,false,Rx,0,8,0,40,0,0,FE,FE,0,16
919504392,000001A0,false,Rx,0,8,0,40,0,0,FE,FE,0,17
919511309,000001A0,false,Rx,0,8,0,40,0,0,FE,FE,0,18
919518557,000001A0,false,Rx,0,8,0,40,0,0,FE,FE,0,19
919525320,000001A0,false,Rx,0,8,0,40,0,0,FE,FE,0,1A
919532358,000001A0,false,Rx,0,8,0,40,0,0,FE,FE,0,1B
919539471,000001A0,false,Rx,0,8,0,40,0,0,FE,FE,0,1C
919546332,000001A0,false,Rx,0,8,0,40,0,0,FE,FE,0,1D
919554814,000001A0,false,Rx,0,8,0,40,0,0,FE,FE,0,1E
919560488,000001A0,false,Rx,0,8,0,40,0,0,FE,FE,0,1F
919567506,000001A0,false,Rx,0,8,0,40,0,0,FE,FE,0,10
919574834,000001A0,false,Rx,0,8,0,40,0,0,FE,FE,0,11
919581458,000001A0,false,Rx,0,8,0,40,0,0,FE,FE,0,12
919588390,000001A0,false,Rx,0,8,0,40,0,0,FE,FE,0,13
919595473,000001A0,false,Rx,0,8,0,40,0,0,FE,FE,0,14
919602424,000001A0,false,Rx,0,8,0,40,0,0,FE,FE,0,15
919609382,000001A0,false,Rx,0,8,0,40,0,0,FE,FE,0,16
919616377,000001A0,false,Rx,0,8,0,40,0,0,FE,FE,0,17
919623479,000001A0,false,Rx,0,8,0,40,0,0,FE,FE,0,18
919630414,000001A0,false,Rx,0,8,0,40,0,0,FE,FE,0,19
919637554,000001A0,false,Rx,0,8,0,40,0,0,FE,FE,0,1A
919644517,000001A0,false,Rx,0,8,0,40,0,0,FE,FE,0,1B
919651440,000001A0,false,Rx,0,8,0,40,0,0,FE,FE,0,1C
919658527,000001A0,false,Rx,0,8,0,40,0,0,FE,FE,0,1D
919665389,000001A0,false,Rx,0,8,0,40,0,0,FE,FE,0,1E
919672481,000001A0,false,Rx,0,8,0,40,0,0,FE,FE,0,1F
919679525,000001A0,false,Rx,0,8,0,40,0,0,FE,FE,0,10
919686365,000001A0,false,Rx,0,8,0,40,0,0,FE,FE,0,11
919694953,000001A0,false,Rx,0,8,0,40,0,0,FE,FE,0,12
919700527,000001A0,false,Rx,0,8,0,40,0,0,FE,FE,0,13
919707521,000001A0,false,Rx,0,8,0,40,0,0,FE,FE,0,14
919715116,000001A0,false,Rx,0,8,0,40,0,0,FE,FE,0,15
919721553,000001A0,false,Rx,0,8,0,40,0,0,FE,FE,0,16
919728490,000001A0,false,Rx,0,8,0,40,0,0,FE,FE,0,17
919735452,000001A0,false,Rx,0,8,0,40,0,0,FE,FE,0,18
919742527,000001A0,false,Rx,0,8,0,40,0,0,FE,FE,0,19
919749519,000001A0,false,Rx,0,8,0,40,0,0,FE,FE,0,1A
919756520,000001A0,false,Rx,0,8,0,40,0,0,FE,FE,0,1B
919763550,000001A0,false,Rx,0,8,0,40,0,0,FE,FE,0,1C
919770529,000001A0,false,Rx,0,8,0,40,0,0,FE,FE,0,1D
919777491,000001A0,false,Rx,0,8,0,40,0,0,FE,FE,0,1E
919784551,000001A0,false,Rx,0,8,0,40,0,0,FE,FE,0,1F
919791474,000001A0,false,Rx,0,8,0,40,0,0,FE,FE,0,10
919798590,000001A0,false,Rx,0,8,0,40,0,0,FE,FE,0,11
919805468,000001A0,false,Rx,0,8,0,40,0,0,FE,FE,0,12
919812516,000001A0,false,Rx,0,8,0,40,0,0,FE,FE,0,13
919819613,000001A0,false,Rx,0,8,0,40,40,0,FE,FE,0,14
919826450,000001A0,false,Rx,0,8,0,40,40,0,FE,FE,0,15
919833521,000001A0,false,Rx,0,8,0,40,40,0,FE,FE,0,16
919840600,000001A0,false,Rx,0,8,0,40,40,0,FE,FE,0,17
919847463,000001A0,false,Rx,0,8,0,40,40,0,FE,FE,0,18
919855244,000001A0,false,Rx,0,8,0,40,40,0,FE,FE,0,19
919861654,000001A0,false,Rx,0,8,0,40,40,0,FE,FE,0,1A
919868548,000001A0,false,Rx,0,8,0,40,40,0,FE,FE,0,1B
919875543,000001A0,false,Rx,0,8,0,40,40,0,FE,FE,0,1C
919882624,000001A0,false,Rx,0,8,0,40,40,0,FE,FE,0,1D
919889519,000001A0,false,Rx,0,8,0,40,0,0,FE,FE,0,1E
919896598,000001A0,false,Rx,0,8,0,40,0,0,FE,FE,0,1F
919903625,000001A0,false,Rx,0,8,0,40,0,0,FE,FE,0,10
919910568,000001A0,false,Rx,0,8,0,40,0,0,FE,FE,0,11
919917582,000001A0,false,Rx,0,8,0,40,0,0,FE,FE,0,12
919924632,000001A0,false,Rx,0,8,0,40,0,0,FE,FE,0,13
919931622,000001A0,false,Rx,0,8,0,40,0,0,FE,FE,0,14
919938655,000001A0,false,Rx,0,8,0,40,0,0,FE,FE,0,15
919945553,000001A0,false,Rx,0,8,0,40,0,0,FE,FE,0,16
919952598,000001A0,false,Rx,0,8,0,40,0,0,FE,FE,0,17
919959647,000001A0,false,Rx,0,8,0,40,0,0,FE,FE,0,18
919966569,000001A0,false,Rx,0,8,0,40,0,0,FE,FE,0,19
919973604,000001A0,false,Rx,0,8,0,40,0,0,FE,FE,0,1A
919980662,000001A0,false,Rx,0,8,0,40,0,0,FE,FE,0,1B
919987580,000001A0,false,Rx,0,8,0,40,0,0,FE,FE,0,1C
919995604,000001A0,false,Rx,0,8,0,40,0,0,FE,FE,0,1D
920001710,000001A0,false,Rx,0,8,0,40,0,0,FE,FE,0,1E
920008572,000001A0,false,Rx,0,8,0,40,0,0,FE,FE,0,1F
920015630,000001A0,false,Rx,0,8,0,40,0,0,FE,FE,0,10
920022703,000001A0,false,Rx,0,8,0,40,0,0,FE,FE,0,11
920029596,000001A0,false,Rx,0,8,0,40,0,0,FE,FE,0,12
920036626,000001A0,false,Rx,0,8,0,40,0,0,FE,FE,0,13
920043729,000001A0,false,Rx,0,8,0,40,0,0,FE,FE,0,14
920050665,000001A0,false,Rx,0,8,0,40,0,0,FE,FE,0,15
920057792,000001A0,false,Rx,0,8,0,40,0,0,FE,FE,0,16
920064636,000001A0,false,Rx,0,8,0,40,0,0,FE,FE,0,17
920071670,000001A0,false,Rx,0,8,0,40,0,0,FE,FE,0,18
920078803,000001A0,false,Rx,0,8,0,40,0,0,FE,FE,0,19
920085650,000001A0,false,Rx,0,8,0,40,0,0,FE,FE,0,1A
920092796,000001A0,false,Rx,0,8,0,40,0,0,FE,FE,0,1B
920099752,000001A0,false,Rx,0,8,0,40,0,0,FE,FE,0,1C
920106619,000001A0,false,Rx,0,8,0,40,0,0,FE,FE,0,1D
920113693,000001A0,false,Rx,0,8,0,40,0,0,FE,FE,0,1E
920120790,000001A0,false,Rx,0,8,0,40,0,0,FE,FE,0,1F
920127709,000001A0,false,Rx,0,8,0,40,0,0,FE,FE,0,10
920135877,000001A0,false,Rx,0,8,0,40,0,0,FE,FE,0,11
920141800,000001A0,false,Rx,0,8,0,40,0,0,FE,FE,0,12
920148688,000001A0,false,Rx,0,8,0,40,0,0,FE,FE,0,13
920155949,000001A0,false,Rx,0,8,0,40,0,0,FE,FE,0,14
920162738,000001A0,false,Rx,0,8,0,40,0,0,FE,FE,0,15
920169746,000001A0,false,Rx,0,8,0,40,0,0,FE,FE,0,16
920176855,000001A0,false,Rx,0,8,0,40,0,0,FE,FE,0,17
920183793,000001A0,false,Rx,0,8,0,40,0,0,FE,FE,0,18
920190739,000001A0,false,Rx,0,8,0,40,42,0,FE,FE,0,19
920197833,000001A0,false,Rx,0,8,0,40,42,0,FE,FE,0,1A
920204675,000001A0,false,Rx,0,8,0,40,42,0,FE,FE,0,1B
920211776,000001A0,false,Rx,0,8,0,40,42,0,FE,FE,0,1C
920219007,000001A0,false,Rx,0,8,0,40,42,0,FE,FE,0,1D
920225718,000001A0,false,Rx,0,8,0,40,42,0,FE,FE,0,1E
920232761,000001A0,false,Rx,0,8,0,40,42,0,FE,FE,0,1F
920239817,000001A0,false,Rx,0,8,0,40,88,0,FE,FE,0,10
920246761,000001A0,false,Rx,0,8,0,40,88,0,FE,FE,0,11
920253762,000001A0,false,Rx,0,8,0,40,88,0,FE,FE,0,12
920260884,000001A0,false,Rx,0,8,0,40,88,0,FE,FE,0,13
920267728,000001A0,false,Rx,0,8,0,40,88,0,FE,FE,0,14
920276047,000001A0,false,Rx,0,8,0,40,92,0,FE,FE,0,15
920281881,000001A0,false,Rx,0,8,0,40,92,0,FE,FE,0,16
920288771,000001A0,false,Rx,0,8,0,40,92,0,FE,FE,0,17
920296175,000001A0,false,Rx,0,8,0,40,92,0,FE,FE,0,18
920302874,000001A0,false,Rx,0,8,0,40,92,0,FE,FE,0,19
920309767,000001A0,false,Rx,0,8,0,40,92,0,FE,FE,0,1A
920316891,000001A0,false,Rx,0,8,0,40,92,0,FE,FE,0,1B
920323867,000001A0,false,Rx,0,8,0,40,92,0,FE,FE,0,1C
920330798,000001A0,false,Rx,0,8,0,40,9C,0,FE,FE,0,1D
920337938,000001A0,false,Rx,0,8,0,40,9C,0,FE,FE,0,1E
920344809,000001A0,false,Rx,0,8,0,40,9C,0,FE,FE,0,1F
920351847,000001A0,false,Rx,0,8,0,40,AA,0,FE,FE,0,10
920358916,000001A0,false,Rx,0,8,0,40,AA,0,FE,FE,0,11
920365795,000001A0,false,Rx,0,8,0,40,AA,0,FE,FE,0,12
920372871,000001A0,false,Rx,0,8,0,40,AA,0,FE,FE,0,13
920379942,000001A0,false,Rx,0,8,0,40,AA,0,FE,FE,0,14
920386850,000001A0,false,Rx,0,8,0,40,AA,0,FE,FE,0,15
920393831,000001A0,false,Rx,0,8,0,40,AA,0,FE,FE,0,16
920401005,000001A0,false,Rx,0,8,0,40,AA,0,FE,FE,0,17
920407840,000001A0,false,Rx,0,8,0,40,AA,0,FE,FE,0,18
920416216,000001A0,false,Rx,0,8,0,40,B4,0,FE,FE,0,19
920422022,000001A0,false,Rx,0,8,0,40,BE,0,FE,FE,0,1A
920428882,000001A0,false,Rx,0,8,0,40,BE,0,FE,FE,0,1B
920436293,000001A0,false,Rx,0,8,0,40,BE,0,FE,FE,0,1C
920442952,000001A0,false,Rx,0,8,0,40,BE,0,FE,FE,0,1D
920449862,000001A0,false,Rx,0,8,0,40,BE,0,FE,FE,0,1E
920456887,000001A0,false,Rx,0,8,0,40,BE,0,FE,FE,0,1F
920463952,000001A0,false,Rx,0,8,0,40,BE,0,FE,FE,0,10
920470916,000001A0,false,Rx,0,8,0,40,BE,0,FE,FE,0,11
920478018,000001A0,false,Rx,0,8,0,40,BE,0,FE,FE,0,12
920484883,000001A0,false,Rx,0,8,0,40,BE,0,FE,FE,0,13
920491909,000001A0,false,Rx,0,8,0,40,D0,0,FE,FE,0,14
920499014,000001A0,false,Rx,0,8,0,40,D0,0,FE,FE,0,15
920505882,000001A0,false,Rx,0,8,0,40,D0,0,FE,FE,0,16
920512923,000001A0,false,Rx,0,8,0,40,D0,0,FE,FE,0,17
920520071,000001A0,false,Rx,0,8,0,40,D0,0,FE,FE,0,18
920526916,000001A0,false,Rx,0,8,0,40,D0,0,FE,FE,0,19
920533974,000001A0,false,Rx,0,8,0,40,D0,0,FE,FE,0,1A
920541170,000001A0,false,Rx,0,8,0,40,D0,0,FE,FE,0,1B
920547938,000001A0,false,Rx,0,8,0,40,D0,0,FE,FE,0,1C
920554897,000001A0,false,Rx,0,8,0,40,D6,0,FE,FE,0,1D
920562000,000001A0,false,Rx,0,8,0,40,DC,0,FE,FE,0,1E
920568963,000001A0,false,Rx,0,8,0,40,DC,0,FE,FE,0,1F
920576613,000001A0,false,Rx,0,8,0,40,DC,0,FE,FE,0,10
920582992,000001A0,false,Rx,0,8,0,40,DC,0,FE,FE,0,11
920589952,000001A0,false,Rx,0,8,0,40,DC,0,FE,FE,0,12
920597264,000001A0,false,Rx,0,8,0,40,DC,0,FE,FE,0,13
920604011,000001A0,false,Rx,0,8,0,40,DC,0,FE,FE,0,14
920610947,000001A0,false,Rx,0,8,0,40,DC,0,FE,FE,0,15
920618098,000001A0,false,Rx,0,8,0,40,E2,0,FE,FE,0,16
920624964,000001A0,false,Rx,0,8,0,40,E2,0,FE,FE,0,17
920632032,000001A0,false,Rx,0,8,0,40,EA,0,FE,FE,0,18
920639147,000001A0,false,Rx,0,8,0,40,EA,0,FE,FE,0,19
920645998,000001A0,false,Rx,0,8,0,40,EA,0,FE,FE,0,1A
920653035,000001A0,false,Rx,0,8,0,40,EA,0,FE,FE,0,1B
920660090,000001A0,false,Rx,0,8,0,40,EA,0,FE,FE,0,1C
920666967,000001A0,false,Rx,0,8,0,40,EA,0,FE,FE,0,1D
920674060,000001A0,false,Rx,0,8,0,40,F0,0,FE,FE,0,1E
920681207,000001A0,false,Rx,0,8,0,40,F0,0,FE,FE,0,1F
920688019,000001A0,false,Rx,0,8,0,40,F0,0,FE,FE,0,10
920695031,000001A0,false,Rx,0,8,0,40,F6,0,FE,FE,0,11
920702116,000001A0,false,Rx,0,8,0,40,F6,0,FE,FE,0,12
920709049,000001A0,false,Rx,0,8,0,40,F6,0,FE,FE,0,13
920717011,000001A0,false,Rx,0,8,0,40,F6,0,FE,FE,0,14
920723112,000001A0,false,Rx,0,8,0,40,F6,0,FE,FE,0,15
920730003,000001A0,false,Rx,0,8,0,40,FC,0,FE,FE,0,16
920737174,000001A0,false,Rx,0,8,0,40,FC,0,FE,FE,0,17
920744172,000001A0,false,Rx,0,8,0,40,FC,0,FE,FE,0,18
920751201,000001A0,false,Rx,0,8,0,40,0,1,FE,FE,0,19
920758207,000001A0,false,Rx,0,8,0,40,0,1,FE,FE,0,1A
920765100,000001A0,false,Rx,0,8,0,48,0,1,FE,FE,0,1B
920772241,000001A0,false,Rx,0,8,0,48,0,1,FE,FE,0,1C
920779269,000001A0,false,Rx,0,8,0,48,0,1,FE,FE,0,1D
920786143,000001A0,false,Rx,0,8,0,48,4,1,FE,FE,0,1E
920793196,000001A0,false,Rx,0,8,0,48,4,1,FE,FE,0,1F
920800341,000001A0,false,Rx,0,8,0,48,4,1,FE,FE,0,10
920807213,000001A0,false,Rx,0,8,0,48,4,1,FE,FE,0,11
920814174,000001A0,false,Rx,0,8,0,48,8,1,FE,FE,0,12
920821358,000001A0,false,Rx,0,8,0,48,8,1,FE,FE,0,13
920828167,000001A0,false,Rx,0,8,0,48,8,1,FE,FE,0,14
920835158,000001A0,false,Rx,0,8,0,48,8,1,FE,FE,0,15
920842312,000001A0,false,Rx,0,8,0,48,0A,1,FE,FE,0,16
920849201,000001A0,false,Rx,0,8,0,48,0A,1,FE,FE,0,17
920857202,000001A0,false,Rx,0,8,0,48,0A,1,FE,FE,0,18
920863281,000001A0,false,Rx,0,8,0,48,0A,1,FE,FE,0,19
920870204,000001A0,false,Rx,0,8,0,48,0A,1,FE,FE,0,1A
920877495,000001A0,false,Rx,0,8,0,48,8,1,FE,FE,0,1B
920884334,000001A0,false,Rx,0,8,0,48,8,1,FE,FE,0,1C
920891224,000001A0,false,Rx,0,8,0,48,8,1,FE,FE,0,1D
920898389,000001A0,false,Rx,0,8,0,48,8,1,FE,FE,0,1E
920905223,000001A0,false,Rx,0,8,0,48,8,1,FE,FE,0,1F
920912294,000001A0,false,Rx,0,8,0,48,8,1,FE,FE,0,10
920919302,000001A0,false,Rx,0,8,0,48,8,1,FE,FE,0,11
920926192,000001A0,false,Rx,0,8,0,48,8,1,FE,FE,0,12
920933234,000001A0,false,Rx,0,8,0,48,4,1,FE,FE,0,13
920940286,000001A0,false,Rx,0,8,0,48,4,1,FE,FE,0,14
920947247,000001A0,false,Rx,0,8,0,48,4,1,FE,FE,0,15
920954213,000001A0,false,Rx,0,8,0,48,2,1,FE,FE,0,16
920961292,000001A0,false,Rx,0,8,0,48,2,1,FE,FE,0,17
920968208,000001A0,false,Rx,0,8,0,48,2,1,FE,FE,0,18
920975220,000001A0,false,Rx,0,8,0,48,2,1,FE,FE,0,19
920982351,000001A0,false,Rx,0,8,0,48,2,1,FE,FE,0,1A
920989212,000001A0,false,Rx,0,8,0,48,2,1,FE,FE,0,1B
920997494,000001A0,false,Rx,0,8,0,48,2,1,FE,FE,0,1C
921003344,000001A0,false,Rx,0,8,0,48,2,1,FE,FE,0,1D
921010239,000001A0,false,Rx,0,8,0,48,0,1,FE,FE,0,1E
921017574,000001A0,false,Rx,0,8,0,48,0,1,FE,FE,0,1F
921024396,000001A0,false,Rx,0,8,0,48,0,1,FE,FE,0,10
921031273,000001A0,false,Rx,0,8,0,48,0,1,FE,FE,0,11
921038463,000001A0,false,Rx,0,8,0,48,0,1,FE,FE,0,12
921045246,000001A0,false,Rx,0,8,0,48,0,1,FE,FE,0,13
921052318,000001A0,false,Rx,0,8,0,48,0,1,FE,FE,0,14
921059434,000001A0,false,Rx,0,8,0,48,0,1,FE,FE,0,15
921066260,000001A0,false,Rx,0,8,0,48,0,1,FE,FE,0,16
921073352,000001A0,false,Rx,0,8,0,48,0,1,FE,FE,0,17
921080422,000001A0,false,Rx,0,8,0,48,0,1,FE,FE,0,18
921087445,000001A0,false,Rx,0,8,0,48,0,1,FE,FE,0,19
921094512,000001A0,false,Rx,0,8,0,48,0,1,FE,FE,0,1A
921101428,000001A0,false,Rx,0,8,0,48,0,1,FE,FE,0,1B
921108309,000001A0,false,Rx,0,8,0,48,0,1,FE,FE,0,1C
921115297,000001A0,false,Rx,0,8,0,48,0,1,FE,FE,0,1D
921122462,000001A0,false,Rx,0,8,0,48,0,1,FE,FE,0,1E
921129314,000001A0,false,Rx,0,8,0,48,0,1,FE,FE,0,1F
921137781,000001A0,false,Rx,0,8,0,48,0,1,FE,FE,0,10
921143397,000001A0,false,Rx,0,8,0,48,0,1,FE,FE,0,11
921150387,000001A0,false,Rx,0,8,0,48,0,1,FE,FE,0,12
921157860,000001A0,false,Rx,0,8,0,48,0,1,FE,FE,0,13
921164453,000001A0,false,Rx,0,8,0,48,0,1,FE,FE,0,14
921171368,000001A0,false,Rx,0,8,0,48,0,1,FE,FE,0,15
921178719,000001A0,false,Rx,0,8,0,40,0,1,FE,FE,0,16
921185422,000001A0,false,Rx,0,8,0,40,0,1,FE,FE,0,17
921192511,000001A0,false,Rx,0,8,0,40,4,1,FE,FE,0,18
921199644,000001A0,false,Rx,0,8,0,40,4,1,FE,FE,0,19
921206496,000001A0,false,Rx,0,8,0,40,4,1,FE,FE,0,1A
921213506,000001A0,false,Rx,0,8,0,40,4,1,FE,FE,0,1B
921220637,000001A0,false,Rx,0,8,0,40,4,1,FE,FE,0,1C
921227448,000001A0,false,Rx,0,8,0,40,4,1,FE,FE,0,1D
921234543,000001A0,false,Rx,0,8,0,40,6,1,FE,FE,0,1E
921241630,000001A0,false,Rx,0,8,0,40,6,1,FE,FE,0,1F
921248547,000001A0,false,Rx,0,8,0,40,0C,1,FE,FE,0,10
921255543,000001A0,false,Rx,0,8,0,40,0C,1,FE,FE,0,11
921262666,000001A0,false,Rx,0,8,0,40,0C,1,FE,FE,0,12
921269558,000001A0,false,Rx,0,8,0,40,0C,1,FE,FE,0,13
921278011,000001A0,false,Rx,0,8,0,40,0C,1,FE,FE,0,14
921283601,000001A0,false,Rx,0,8,0,40,0C,1,FE,FE,0,15
921290491,000001A0,false,Rx,0,8,0,40,14,1,FE,FE,0,16
921298123,000001A0,false,Rx,0,8,0,40,14,1,FE,FE,0,17
921304596,000001A0,false,Rx,0,8,0,40,1A,1,FE,FE,0,18
921311607,000001A0,false,Rx,0,8,0,40,1A,1,FE,FE,0,19
921318648,000001A0,false,Rx,0,8,0,40,1A,1,FE,FE,0,1A
921325550,000001A0,false,Rx,0,8,0,40,1A,1,FE,FE,0,1B
921332618,000001A0,false,Rx,0,8,0,40,1A,1,FE,FE,0,1C
921339727,000001A0,false,Rx,0,8,0,40,22,1,FE,FE,0,1D
921346576,000001A0,false,Rx,0,8,0,40,22,1,FE,FE,0,1E
921353651,000001A0,false,Rx,0,8,0,40,26,1,FE,FE,0,1F
921360727,000001A0,false,Rx,0,8,0,40,26,1,FE,FE,0,10
921367566,000001A0,false,Rx,0,8,0,40,26,1,FE,FE,0,11
921374632,000001A0,false,Rx,0,8,0,40,26,1,FE,FE,0,12
921381718,000001A0,false,Rx,0,8,0,40,30,1,FE,FE,0,13
921388607,000001A0,false,Rx,0,8,0,40,30,1,FE,FE,0,14
921395582,000001A0,false,Rx,0,8,0,40,30,1,FE,FE,0,15
921402736,000001A0,false,Rx,0,8,0,40,36,1,FE,FE,0,16
921409660,000001A0,false,Rx,0,8,0,40,36,1,FE,FE,0,17
921416640,000001A0,false,Rx,0,8,0,40,36,1,FE,FE,0,18
921423773,000001A0,false,Rx,0,8,0,40,3E,1,FE,FE,0,19
921430593,000001A0,false,Rx,0,8,0,40,3E,1,FE,FE,0,1A
921438353,000001A0,false,Rx,0,8,0,40,3E,1,FE,FE,0,1B
921444620,000001A0,false,Rx,0,8,0,40,3E,1,FE,FE,0,1C
921451655,000001A0,false,Rx,0,8,0,40,46,1,FE,FE,0,1D
921458813,000001A0,false,Rx,0,8,0,40,46,1,FE,FE,0,1E
921465638,000001A0,false,Rx,0,8,0,40,4E,1,FE,FE,0,1F
921472701,000001A0,false,Rx,0,8,0,40,4E,1,FE,FE,0,10
921479810,000001A0,false,Rx,0,8,0,40,4E,1,FE,FE,0,11
921486604,000001A0,false,Rx,0,8,0,40,4E,1,FE,FE,0,12
921493739,000001A0,false,Rx,0,8,0,40,4E,1,FE,FE,0,13
921500875,000001A0,false,Rx,0,8,0,40,56,1,FE,FE,0,14
921507700,000001A0,false,Rx,0,8,0,40,5E,1,FE,FE,0,15
921514724,000001A0,false,Rx,0,8,0,40,5E,1,FE,FE,0,16
921521802,000001A0,false,Rx,0,8,0,40,5E,1,FE,FE,0,17
921528690,000001A0,false,Rx,0,8,0,40,5E,1,FE,FE,0,18
921535684,000001A0,false,Rx,0,8,0,40,5E,1,FE,FE,0,19
921542854,000001A0,false,Rx,0,8,0,40,66,1,FE,FE,0,1A
921549742,000001A0,false,Rx,0,8,0,40,6E,1,FE,FE,0,1B
921556785,000001A0,false,Rx,0,8,0,40,6E,1,FE,FE,0,1C
921563766,000001A0,false,Rx,0,8,0,40,6E,1,FE,FE,0,1D
921570787,000001A0,false,Rx,0,8,0,40,6E,1,FE,FE,0,1E
921578494,000001A0,false,Rx,0,8,0,40,6E,1,FE,FE,0,1F
921584588,000001A0,false,Rx,0,8,0,40,7C,1,FE,FE,0,10
921591699,000001A0,false,Rx,0,8,0,40,7C,1,FE,FE,0,11
921598828,000001A0,false,Rx,0,8,0,40,7C,1,FE,FE,0,12
921605618,000001A0,false,Rx,0,8,0,40,7C,1,FE,FE,0,13
921612689,000001A0,false,Rx,0,8,0,40,7C,1,FE,FE,0,14
921619977,000001A0,false,Rx,0,8,0,40,82,1,FE,FE,0,15
921626665,000001A0,false,Rx,0,8,0,40,88,1,FE,FE,0,16
921633704,000001A0,false,Rx,0,8,0,40,88,1,FE,FE,0,17
921640806,000001A0,false,Rx,0,8,0,40,88,1,FE,FE,0,18
921647673,000001A0,false,Rx,0,8,0,40,88,1,FE,FE,0,19
921654691,000001A0,false,Rx,0,8,0,40,8E,1,FE,FE,0,1A
921661806,000001A0,false,Rx,0,8,0,40,94,1,FE,FE,0,1B
921668718,000001A0,false,Rx,0,8,0,40,94,1,FE,FE,0,1C
921675706,000001A0,false,Rx,0,8,0,40,94,1,FE,FE,0,1D
921682822,000001A0,false,Rx,0,8,0,40,94,1,FE,FE,0,1E
921689691,000001A0,false,Rx,0,8,0,40,9A,1,FE,FE,0,1F
921696785,000001A0,false,Rx,0,8,0,40,9A,1,FE,FE,0,10
921703802,000001A0,false,Rx,0,8,0,40,A0,1,FE,FE,0,11
921710696,000001A0,false,Rx,0,8,0,40,A0,1,FE,FE,0,12
921718959,000001A0,false,Rx,0,8,0,40,A0,1,FE,FE,0,13
921724732,000001A0,false,Rx,0,8,0,40,A6,1,FE,FE,0,14
921731723,000001A0,false,Rx,0,8,0,40,A6,1,FE,FE,0,15
921738975,000001A0,false,Rx,0,8,0,40,AC,1,FE,FE,0,16
921745736,000001A0,false,Rx,0,8,0,40,AC,1,FE,FE,0,17
921752805,000001A0,false,Rx,0,8,0,40,AC,1,FE,FE,0,18
921760043,000001A0,false,Rx,0,8,0,40,B4,1,FE,FE,0,19
921766749,000001A0,false,Rx,0,8,0,40,B4,1,FE,FE,0,1A
921773832,000001A0,false,Rx,0,8,0,40,B8,1,FE,FE,0,1B
921780928,000001A0,false,Rx,0,8,0,40,B8,1,FE,FE,0,1C
921787739,000001A0,false,Rx,0,8,0,40,BE,1,FE,FE,0,1D
921794909,000001A0,false,Rx,0,8,0,40,BE,1,FE,FE,0,1E
921801896,000001A0,false,Rx,0,8,0,40,BE,1,FE,FE,0,1F
921808818,000001A0,false,Rx,0,8,0,40,BE,1,FE,FE,0,10
921815739,000001A0,false,Rx,0,8,0,40,C0,1,FE,FE,0,11
921822959,000001A0,false,Rx,0,8,0,40,C6,1,FE,FE,0,12
921829823,000001A0,false,Rx,0,8,0,40,C6,1,FE,FE,0,13
921836791,000001A0,false,Rx,0,8,0,40,C6,1,FE,FE,0,14
921843878,000001A0,false,Rx,0,8,0,40,CC,1,FE,FE,0,15
921850840,000001A0,false,Rx,0,8,0,40,D4,1,FE,FE,0,16
921859203,000001A0,false,Rx,0,8,0,40,D4,1,FE,FE,0,17
921864792,000001A0,false,Rx,0,8,0,40,D4,1,FE,FE,0,18
921871859,000001A0,false,Rx,0,8,0,40,D4,1,FE,FE,0,19
921879205,000001A0,false,Rx,0,8,0,40,DC,1,FE,FE,0,1A
921885788,000001A0,false,Rx,0,8,0,40,E2,1,FE,FE,0,1B
921892865,000001A0,false,Rx,0,8,0,40,E2,1,FE,FE,0,1C
921900036,000001A0,false,Rx,0,8,0,40,E2,1,FE,FE,0,1D
921906840,000001A0,false,Rx,0,8,0,40,E2,1,FE,FE,0,1E
921913872,000001A0,false,Rx,0,8,0,40,EE,1,FE,FE,0,1F
921921125,000001A0,false,Rx,0,8,0,40,EE,1,FE,FE,0,10
921927832,000001A0,false,Rx,0,8,0,40,EE,1,FE,FE,0,11
921934844,000001A0,false,Rx,0,8,0,40,EE,1,FE,FE,0,12
921941952,000001A0,false,Rx,0,8,0,40,FA,1,FE,FE,0,13
921948872,000001A0,false,Rx,0,8,0,40,FA,1,FE,FE,0,14
921955866,000001A0,false,Rx,0,8,0,40,FA,1,FE,FE,0,15
921963012,000001A0,false,Rx,0,8,0,40,FA,1,FE,FE,0,16
921969926,000001A0,false,Rx,0,8,0,40,0,2,FE,FE,0,17
921976893,000001A0,false,Rx,0,8,0,40,8,2,FE,FE,0,18
921984030,000001A0,false,Rx,0,8,0,40,8,2,FE,FE,0,19
921990918,000001A0,false,Rx,0,8,0,40,8,2,FE,FE,0,1A
921999513,000001A0,false,Rx,0,8,0,40,0E,2,FE,FE,0,1B
922004790,000001A0,false,Rx,0,8,0,40,14,2,FE,FE,0,1C
922011831,000001A0,false,Rx,0,8,0,40,14,2,FE,FE,0,1D
922019544,000001A0,false,Rx,0,8,0,40,1A,2,FE,FE,0,1E
922025897,000001A0,false,Rx,0,8,0,40,1A,2,FE,FE,0,1F
922032835,000001A0,false,Rx,0,8,0,40,1A,2,FE,FE,0,10
922040006,000001A0,false,Rx,0,8,0,40,1A,2,FE,FE,0,11
922046792,000001A0,false,Rx,0,8,0,40,1E,2,FE,FE,0,12
922053832,000001A0,false,Rx,0,8,0,40,1E,2,FE,FE,0,13
922061113,000001A0,false,Rx,0,8,0,40,1E,2,FE,FE,0,14
922067820,000001A0,false,Rx,0,8,0,40,1C,2,FE,FE,0,15
922074869,000001A0,false,Rx,0,8,0,40,1E,2,FE,FE,0,16
922081926,000001A0,false,Rx,0,8,0,40,1E,2,FE,FE,0,17
922088816,000001A0,false,Rx,0,8,0,40,1E,2,FE,FE,0,18
922095855,000001A0,false,Rx,0,8,0,40,1E,2,FE,FE,0,19
922102973,000001A0,false,Rx,0,8,0,40,20,2,FE,FE,0,1A
922109835,000001A0,false,Rx,0,8,0,40,20,2,FE,FE,0,1B
922116879,000001A0,false,Rx,0,8,0,40,20,2,FE,FE,0,1C
922123957,000001A0,false,Rx,0,8,0,40,20,2,FE,FE,0,1D
922130879,000001A0,false,Rx,0,8,0,40,20,2,FE,FE,0,1E
922138024,000001A0,false,Rx,0,8,0,40,20,2,FE,FE,0,1F
922144837,000001A0,false,Rx,0,8,0,40,20,2,FE,FE,0,10
922151947,000001A0,false,Rx,0,8,0,40,20,2,FE,FE,0,11
922159740,000001A0,false,Rx,0,8,0,40,20,2,FE,FE,0,12
922165868,000001A0,false,Rx,0,8,0,40,20,2,FE,FE,0,13
922172917,000001A0,false,Rx,0,8,0,40,20,2,FE,FE,0,14
922180012,000001A0,false,Rx,0,8,0,40,20,2,FE,FE,0,15
922186855,000001A0,false,Rx,0,8,0,40,24,2,FE,FE,0,16
922193917,000001A0,false,Rx,0,8,0,40,24,2,FE,FE,0,17
922201124,000001A0,false,Rx,0,8,0,40,24,2,FE,FE,0,18
922207913,000001A0,false,Rx,0,8,0,40,24,2,FE,FE,0,19
922214897,000001A0,false,Rx,0,8,0,40,2A,2,FE,FE,0,1A
922222088,000001A0,false,Rx,0,8,0,40,2A,2,FE,FE,0,1B
922228921,000001A0,false,Rx,0,8,0,40,2A,2,FE,FE,0,1C
922235935,000001A0,false,Rx,0,8,0,40,26,2,FE,FE,0,1D
922243013,000001A0,false,Rx,0,8,0,40,28,2,FE,FE,0,1E
922249964,000001A0,false,Rx,0,8,0,40,28,2,FE,FE,0,1F
922257089,000001A0,false,Rx,0,8,0,40,28,2,FE,FE,0,10
922264049,000001A0,false,Rx,0,8,0,40,26,2,FE,FE,0,11
922271148,000001A0,false,Rx,0,8,0,40,26,2,FE,FE,0,12
922278036,000001A0,false,Rx,0,8,0,40,26,2,FE,FE,0,13
922284872,000001A0,false,Rx,0,8,0,40,26,2,FE,FE,0,14
922291994,000001A0,false,Rx,0,8,0,40,26,2,FE,FE,0,15
922300068,000001A0,false,Rx,0,8,0,40,26,2,FE,FE,0,16
922305887,000001A0,false,Rx,0,8,0,40,24,2,FE,FE,0,17
922312957,000001A0,false,Rx,0,8,0,40,26,2,FE,FE,0,18
922320163,000001A0,false,Rx,0,8,0,40,26,2,FE,FE,0,19
922327137,000001A0,false,Rx,0,8,0,40,26,2,FE,FE,0,1A
922334025,000001A0,false,Rx,0,8,0,40,1E,2,FE,FE,0,1B
922341232,000001A0,false,Rx,0,8,0,40,1E,2,FE,FE,0,1C
922347986,000001A0,false,Rx,0,8,0,40,1E,2,FE,FE,0,1D
922354967,000001A0,false,Rx,0,8,0,40,1E,2,FE,FE,0,1E
922362104,000001A0,false,Rx,0,8,0,40,1C,2,FE,FE,0,1F
922369043,000001A0,false,Rx,0,8,0,40,1A,2,FE,FE,0,10
922375995,000001A0,false,Rx,0,8,0,40,1A,2,FE,FE,0,11
922383100,000001A0,false,Rx,0,8,0,40,1A,2,FE,FE,0,12
922390036,000001A0,false,Rx,0,8,0,40,1A,2,FE,FE,0,13
922397222,000001A0,false,Rx,0,8,0,40,1E,2,FE,FE,0,14
922404123,000001A0,false,Rx,0,8,0,40,1E,2,FE,FE,0,15
922411258,000001A0,false,Rx,0,8,0,40,1E,2,FE,FE,0,16
922418159,000001A0,false,Rx,0,8,0,40,1E,2,FE,FE,0,17
922425049,000001A0,false,Rx,0,8,0,40,20,2,FE,FE,0,18
922432024,000001A0,false,Rx,0,8,0,40,20,2,FE,FE,0,19
922440305,000001A0,false,Rx,0,8,0,40,20,2,FE,FE,0,1A
922446012,000001A0,false,Rx,0,8,0,40,22,2,FE,FE,0,1B
922453084,000001A0,false,Rx,0,8,0,40,22,2,FE,FE,0,1C
922460330,000001A0,false,Rx,0,8,0,40,22,2,FE,FE,0,1D
922467095,000001A0,false,Rx,0,8,0,40,22,2,FE,FE,0,1E
922474086,000001A0,false,Rx,0,8,0,40,24,2,FE,FE,0,1F
922481174,000001A0,false,Rx,0,8,0,40,28,2,FE,FE,0,10
922488043,000001A0,false,Rx,0,8,0,40,28,2,FE,FE,0,11
922495043,000001A0,false,Rx,0,8,0,40,28,2,FE,FE,0,12
922502171,000001A0,false,Rx,0,8,0,40,2E,2,FE,FE,0,13
922509041,000001A0,false,Rx,0,8,0,40,38,2,FE,FE,0,14
922516031,000001A0,false,Rx,0,8,0,40,38,2,FE,FE,0,15
922523163,000001A0,false,Rx,0,8,0,40,40,2,FE,FE,0,16
922530097,000001A0,false,Rx,0,8,0,40,40,2,FE,FE,0,17
922537310,000001A0,false,Rx,0,8,0,40,44,2,FE,FE,0,18
922544184,000001A0,false,Rx,0,8,0,40,44,2,FE,FE,0,19
922551099,000001A0,false,Rx,0,8,0,40,46,2,FE,FE,0,1A
922558209,000001A0,false,Rx,0,8,0,40,46,2,FE,FE,0,1B
922565048,000001A0,false,Rx,0,8,0,40,42,2,FE,FE,0,1C
922572112,000001A0,false,Rx,0,8,0,40,42,2,FE,FE,0,1D
922580588,000001A0,false,Rx,0,8,0,40,44,2,FE,FE,0,1E
922586085,000001A0,false,Rx,0,8,0,40,44,2,FE,FE,0,1F
922593151,000001A0,false,Rx,0,8,0,40,44,2,FE,FE,0,10
922600669,000001A0,false,Rx,0,8,0,40,4A,2,FE,FE,0,11
922607128,000001A0,false,Rx,0,8,0,40,4A,2,FE,FE,0,12
922614135,000001A0,false,Rx,0,8,0,40,4A,2,FE,FE,0,13
922621306,000001A0,false,Rx,0,8,0,40,58,2,FE,FE,0,14
922628104,000001A0,false,Rx,0,8,0,40,58,2,FE,FE,0,15
922635123,000001A0,false,Rx,0,8,0,40,58,2,FE,FE,0,16
922642285,000001A0,false,Rx,0,8,0,40,58,2,FE,FE,0,17
922649152,000001A0,false,Rx,0,8,0,40,6A,2,FE,FE,0,18
922656144,000001A0,false,Rx,0,8,0,40,6A,2,FE,FE,0,19
922663303,000001A0,false,Rx,0,8,0,40,6A,2,FE,FE,0,1A
922670151,000001A0,false,Rx,0,8,0,40,6E,2,FE,FE,0,1B
922677286,000001A0,false,Rx,0,8,0,40,72,2,FE,FE,0,1C
922684309,000001A0,false,Rx,0,8,0,40,72,2,FE,FE,0,1D
922691244,000001A0,false,Rx,0,8,0,40,70,2,FE,FE,0,1E
922698333,000001A0,false,Rx,0,8,0,40,72,2,FE,FE,0,1F
922705173,000001A0,false,Rx,0,8,0,40,72,2,FE,FE,0,10
922712203,000001A0,false,Rx,0,8,0,40,72,2,FE,FE,0,11
922720886,000001A0,false,Rx,0,8,0,40,76,2,FE,FE,0,12
922726225,000001A0,false,Rx,0,8,0,40,7C,2,FE,FE,0,13
922733198,000001A0,false,Rx,0,8,0,40,7C,2,FE,FE,0,14
922741071,000001A0,false,Rx,0,8,0,40,84,2,FE,FE,0,15
922747358,000001A0,false,Rx,0,8,0,40,84,2,FE,FE,0,16
922754195,000001A0,false,Rx,0,8,0,40,8E,2,FE,FE,0,17
922761282,000001A0,false,Rx,0,8,0,40,96,2,FE,FE,0,18
922768249,000001A0,false,Rx,0,8,0,40,96,2,FE,FE,0,19
922775239,000001A0,false,Rx,0,8,0,40,9E,2,FE,FE,0,1A
922782313,000001A0,false,Rx,0,8,0,40,A4,2,FE,FE,0,1B
922789184,000001A0,false,Rx,0,8,0,40,A4,2,FE,FE,0,1C
922796258,000001A0,false,Rx,0,8,0,40,AA,2,FE,FE,0,1D
922803335,000001A0,false,Rx,0,8,0,40,B0,2,FE,FE,0,1E
922810226,000001A0,false,Rx,0,8,0,40,B0,2,FE,FE,0,1F
922817328,000001A0,false,Rx,0,8,0,40,B0,2,FE,FE,0,10
922824382,000001A0,false,Rx,0,8,0,40,BE,2,FE,FE,0,11
922831235,000001A0,false,Rx,0,8,0,40,BE,2,FE,FE,0,12
922838343,000001A0,false,Rx,0,8,0,40,BE,2,FE,FE,0,13
922845240,000001A0,false,Rx,0,8,0,40,CA,2,FE,FE,0,14
922852304,000001A0,false,Rx,0,8,0,40,CA,2,FE,FE,0,15
922859380,000001A0,false,Rx,0,8,0,40,CA,2,FE,FE,0,16
922866256,000001A0,false,Rx,0,8,0,40,D6,2,FE,FE,0,17
922873346,000001A0,false,Rx,0,8,0,40,D6,2,FE,FE,0,18
922881180,000001A0,false,Rx,0,8,0,40,DE,2,FE,FE,0,19
922887324,000001A0,false,Rx,0,8,0,40,E0,2,FE,FE,0,1A
922894364,000001A0,false,Rx,0,8,0,40,E0,2,FE,FE,0,1B
922901452,000001A0,false,Rx,0,8,0,40,EC,2,FE,FE,0,1C
922908326,000001A0,false,Rx,0,8,0,40,F8,2,FE,FE,0,1D
922915271,000001A0,false,Rx,0,8,0,40,F8,2,FE,FE,0,1E
922922438,000001A0,false,Rx,0,8,0,40,2,3,FE,FE,0,1F
922929300,000001A0,false,Rx,0,8,0,40,0A,3,FE,FE,0,10
922936287,000001A0,false,Rx,0,8,0,40,10,3,FE,FE,0,11
922943446,000001A0,false,Rx,0,8,0,40,10,3,FE,FE,0,12
922950382,000001A0,false,Rx,0,8,0,40,16,3,FE,FE,0,13
922957480,000001A0,false,Rx,0,8,0,40,20,3,FE,FE,0,14
922964507,000001A0,false,Rx,0,8,0,40,20,3,FE,FE,0,15
922971347,000001A0,false,Rx,0,8,0,40,34,3,FE,FE,0,16
922978461,000001A0,false,Rx,0,8,0,40,34,3,FE,FE,0,17
922985352,000001A0,false,Rx,0,8,0,40,34,3,FE,FE,0,18
922992391,000001A0,false,Rx,0,8,0,40,3C,3,FE,FE,0,19
922999506,000001A0,false,Rx,0,8,0,40,3C,3,FE,FE,0,1A
923006387,000001A0,false,Rx,0,8,0,40,42,3,FE,FE,0,1B
923013414,000001A0,false,Rx,0,8,0,40,42,3,FE,FE,0,1C
923021417,000001A0,false,Rx,0,8,0,40,42,3,FE,FE,0,1D
923027366,000001A0,false,Rx,0,8,0,40,58,3,FE,FE,0,1E
923034437,000001A0,false,Rx,0,8,0,40,58,3,FE,FE,0,1F
923041483,000001A0,false,Rx,0,8,0,40,62,3,FE,FE,0,10
923048420,000001A0,false,Rx,0,8,0,40,6E,3,FE,FE,0,11
923055425,000001A0,false,Rx,0,8,0,40,6E,3,FE,FE,0,12
923062519,000001A0,false,Rx,0,8,0,40,76,3,FE,FE,0,13
923069434,000001A0,false,Rx,0,8,0,40,76,3,FE,FE,0,14
923076422,000001A0,false,Rx,0,8,0,40,7C,3,FE,FE,0,15
923083523,000001A0,false,Rx,0,8,0,40,82,3,FE,FE,0,16
923090530,000001A0,false,Rx,0,8,0,40,8A,3,FE,FE,0,17
923097698,000001A0,false,Rx,0,8,0,40,8A,3,FE,FE,0,18
923104715,000001A0,false,Rx,0,8,0,40,98,3,FE,FE,0,19
923111556,000001A0,false,Rx,0,8,0,40,98,3,FE,FE,0,1A
923118696,000001A0,false,Rx,0,8,0,40,A4,3,FE,FE,0,1B
923125643,000001A0,false,Rx,0,8,0,40,A4,3,FE,FE,0,1C
923132541,000001A0,false,Rx,0,8,0,40,B0,3,FE,FE,0,1D
923139673,000001A0,false,Rx,0,8,0,40,B4,3,FE,FE,0,1E
923146561,000001A0,false,Rx,0,8,0,40,B4,3,FE,FE,0,1F
923153532,000001A0,false,Rx,0,8,0,40,C4,3,FE,FE,0,10
923162414,000001A0,false,Rx,0,8,0,40,C4,3,FE,FE,0,11
923167452,000001A0,false,Rx,0,8,0,40,D2,3,FE,FE,0,12
923174651,000001A0,false,Rx,0,8,0,40,D2,3,FE,FE,0,13
923183064,000001A0,false,Rx,0,8,0,40,DA,3,FE,FE,0,14
923188477,000001A0,false,Rx,0,8,0,40,E0,3,FE,FE,0,15
923195554,000001A0,false,Rx,0,8,0,40,EA,3,FE,FE,0,16
923203612,000001A0,false,Rx,0,8,0,40,EE,3,FE,FE,0,17
923209554,000001A0,false,Rx,0,8,0,40,F6,3,FE,FE,0,18
923216639,000001A0,false,Rx,0,8,0,40,FC,3,FE,FE,0,19
923223730,000001A0,false,Rx,0,8,0,40,2,4,FE,FE,0,1A
923230622,000001A0,false,Rx,0,8,0,40,4,4,FE,FE,0,1B
923237904,000001A0,false,Rx,0,8,0,40,6,4,FE,FE,0,1C
923244622,000001A0,false,Rx,0,8,0,40,6,4,FE,FE,0,1D
923251659,000001A0,false,Rx,0,8,0,40,8,4,FE,FE,0,1E
923258686,000001A0,false,Rx,0,8,0,40,8,4,FE,FE,0,1F
923265577,000001A0,false,Rx,0,8,0,40,1A,4,FE,FE,0,10
923272598,000001A0,false,Rx,0,8,0,40,1A,4,FE,FE,0,11
923279667,000001A0,false,Rx,0,8,0,40,20,4,FE,FE,0,12
923286502,000001A0,false,Rx,0,8,0,40,20,4,FE,FE,0,13
923293666,000001A0,false,Rx,0,8,0,40,26,4,FE,FE,0,14
923300795,000001A0,false,Rx,0,8,0,40,26,4,FE,FE,0,15
923307680,000001A0,false,Rx,0,8,0,40,28,4,FE,FE,0,16
923314663,000001A0,false,Rx,0,8,0,40,2A,4,FE,FE,0,17
923323548,000001A0,false,Rx,0,8,0,40,30,4,FE,FE,0,18
923328611,000001A0,false,Rx,0,8,0,40,30,4,FE,FE,0,19
923335700,000001A0,false,Rx,0,8,0,40,32,4,FE,FE,0,1A
923344200,000001A0,false,Rx,0,8,0,40,3E,4,FE,FE,0,1B
923349635,000001A0,false,Rx,0,8,0,40,44,4,FE,FE,0,1C
923356642,000001A0,false,Rx,0,8,0,40,54,4,FE,FE,0,1D
923363883,000001A0,false,Rx,0,8,0,40,54,4,FE,FE,0,1E
923370976,000001A0,false,Rx,0,8,0,40,5A,4,FE,FE,0,1F
923378018,000001A0,false,Rx,0,8,0,40,5A,4,FE,FE,0,10
923384822,000001A0,false,Rx,0,8,0,40,62,4,FE,FE,0,11
923391782,000001A0,false,Rx,0,8,0,40,62,4,FE,FE,0,12
923399028,000001A0,false,Rx,0,8,0,40,6A,4,FE,FE,0,13
923405916,000001A0,false,Rx,0,8,0,40,6A,4,FE,FE,0,14
923412881,000001A0,false,Rx,0,8,0,40,76,4,FE,FE,0,15
923420181,000001A0,false,Rx,0,8,0,40,7E,4,FE,FE,0,16
923426976,000001A0,false,Rx,0,8,0,40,86,4,FE,FE,0,17
923433935,000001A0,false,Rx,0,8,0,40,90,4,FE,FE,0,18
923441075,000001A0,false,Rx,0,8,0,40,9A,4,FE,FE,0,19
923447800,000001A0,false,Rx,0,8,0,40,A2,4,FE,FE,0,1A
923454795,000001A0,false,Rx,0,8,0,40,A8,4,FE,FE,0,1B
923463162,000001A0,false,Rx,0,8,0,40,AC,4,FE,FE,0,1C
923468799,000001A0,false,Rx,0,8,0,40,B2,4,FE,FE,0,1D
923475849,000001A0,false,Rx,0,8,0,40,B2,4,FE,FE,0,1E
923483185,000001A0,false,Rx,0,8,0,40,B0,4,FE,FE,0,1F
923489795,000001A0,false,Rx,0,8,0,40,B0,4,FE,FE,0,10
923497077,000001A0,false,Rx,0,8,0,40,B6,4,FE,FE,0,11
923503963,000001A0,false,Rx,0,8,0,40,B6,4,FE,FE,0,12
923510785,000001A0,false,Rx,0,8,0,40,C6,4,FE,FE,0,13
923517964,000001A0,false,Rx,0,8,0,40,CC,4,FE,FE,0,14
923524924,000001A0,false,Rx,0,8,0,40,CA,4,FE,FE,0,15
923531887,000001A0,false,Rx,0,8,0,40,D0,4,FE,FE,0,16
923538999,000001A0,false,Rx,0,8,0,40,CE,4,FE,FE,0,17
923545829,000001A0,false,Rx,0,8,0,40,D0,4,FE,FE,0,18
923552875,000001A0,false,Rx,0,8,0,40,DA,4,FE,FE,0,19
923560026,000001A0,false,Rx,0,8,0,40,DA,4,FE,FE,0,1A
923566928,000001A0,false,Rx,0,8,0,40,E0,4,FE,FE,0,1B
923573942,000001A0,false,Rx,0,8,0,40,DC,4,FE,FE,0,1C
923581066,000001A0,false,Rx,0,8,0,40,E2,4,FE,FE,0,1D
923587894,000001A0,false,Rx,0,8,0,40,EE,4,FE,FE,0,1E
923594866,000001A0,false,Rx,0,8,0,40,EE,4,FE,FE,0,1F
923603289,000001A0,false,Rx,0,8,0,40,FC,4,FE,FE,0,10
923608849,000001A0,false,Rx,0,8,0,40,FC,4,FE,FE,0,11
923615866,000001A0,false,Rx,0,8,0,40,FC,4,FE,FE,0,12
923623439,000001A0,false,Rx,0,8,0,40,F8,4,FE,FE,0,13
923629898,000001A0,false,Rx,0,8,0,40,FA,4,FE,FE,0,14
923637063,000001A0,false,Rx,0,8,0,40,F8,4,FE,FE,0,15
923643997,000001A0,false,Rx,0,8,0,40,FC,4,FE,FE,0,16
923651056,000001A0,false,Rx,0,8,0,40,0,5,FE,FE,0,17
923658191,000001A0,false,Rx,0,8,0,40,FC,4,FE,FE,0,18
923664929,000001A0,false,Rx,0,8,0,40,FC,4,FE,FE,0,19
923671995,000001A0,false,Rx,0,8,0,40,F8,4,FE,FE,0,1A
923679036,000001A0,false,Rx,0,8,0,40,FC,4,FE,FE,0,1B
923685905,000001A0,false,Rx,0,8,0,40,FC,4,FE,FE,0,1C
923692976,000001A0,false,Rx,0,8,0,40,2,5,FE,FE,0,1D
923700095,000001A0,false,Rx,0,8,0,40,FE,4,FE,FE,0,1E
923707080,000001A0,false,Rx,0,8,0,40,0A,5,FE,FE,0,1F
923713975,000001A0,false,Rx,0,8,0,40,26,5,FE,FE,0,10
923721111,000001A0,false,Rx,0,8,0,40,26,5,FE,FE,0,11
923727931,000001A0,false,Rx,0,8,0,40,34,5,FE,FE,0,12
923734923,000001A0,false,Rx,0,8,0,40,36,5,FE,FE,0,13
923742077,000001A0,false,Rx,0,8,0,40,3C,5,FE,FE,0,14
923748974,000001A0,false,Rx,0,8,0,40,44,5,FE,FE,0,15
923755919,000001A0,false,Rx,0,8,0,40,44,5,FE,FE,0,16
923763656,000001A0,false,Rx,0,8,0,40,32,5,FE,FE,0,17
923769995,000001A0,false,Rx,0,8,0,40,2C,5,FE,FE,0,18
923777075,000001A0,false,Rx,0,8,0,40,2A,5,FE,FE,0,19
923784170,000001A0,false,Rx,0,8,0,40,32,5,FE,FE,0,1A
923791066,000001A0,false,Rx,0,8,0,40,42,5,FE,FE,0,1B
923798281,000001A0,false,Rx,0,8,0,40,3E,5,FE,FE,0,1C
923805007,000001A0,false,Rx,0,8,0,40,48,5,FE,FE,0,1D
923811990,000001A0,false,Rx,0,8,0,40,4C,5,FE,FE,0,1E
923819205,000001A0,false,Rx,0,8,0,40,4C,5,FE,FE,0,1F
923826029,000001A0,false,Rx,0,8,0,40,54,5,FE,FE,0,10
923833031,000001A0,false,Rx,0,8,0,40,66,5,FE,FE,0,11
923840100,000001A0,false,Rx,0,8,0,40,66,5,FE,FE,0,12
923847072,000001A0,false,Rx,0,8,0,40,60,5,FE,FE,0,13
923854069,000001A0,false,Rx,0,8,0,40,5C,5,FE,FE,0,14
923861144,000001A0,false,Rx,0,8,0,40,4C,5,FE,FE,0,15
923868076,000001A0,false,Rx,0,8,0,40,44,5,FE,FE,0,16
923875065,000001A0,false,Rx,0,8,0,40,4C,5,FE,FE,0,17
923882169,000001A0,false,Rx,0,8,0,40,56,5,FE,FE,0,18
923889075,000001A0,false,Rx,0,8,0,40,60,5,FE,FE,0,19
923896075,000001A0,false,Rx,0,8,0,40,5A,5,FE,FE,0,1A
923904156,000001A0,false,Rx,0,8,0,40,5C,5,FE,FE,0,1B
923910021,000001A0,false,Rx,0,8,0,40,54,5,FE,FE,0,1C
923917095,000001A0,false,Rx,0,8,0,40,58,5,FE,FE,0,1D
923924205,000001A0,false,Rx,0,8,0,40,56,5,FE,FE,0,1E
923931049,000001A0,false,Rx,0,8,0,40,5C,5,FE,FE,0,1F
923938169,000001A0,false,Rx,0,8,0,40,5C,5,FE,FE,0,10
923945113,000001A0,false,Rx,0,8,0,40,64,5,FE,FE,0,11
923952095,000001A0,false,Rx,0,8,0,40,68,5,FE,FE,0,12
923959203,000001A0,false,Rx,0,8,0,40,68,5,FE,FE,0,13
923966075,000001A0,false,Rx,0,8,0,40,6A,5,FE,FE,0,14
923973159,000001A0,false,Rx,0,8,0,40,76,5,FE,FE,0,15
923980234,000001A0,false,Rx,0,8,0,40,7A,5,FE,FE,0,16
923987326,000001A0,false,Rx,0,8,0,40,80,5,FE,FE,0,17
923994245,000001A0,false,Rx,0,8,0,40,7A,5,FE,FE,0,18
924001241,000001A0,false,Rx,0,8,0,40,76,5,FE,FE,0,19
924008146,000001A0,false,Rx,0,8,0,40,6E,5,FE,FE,0,1A
924015065,000001A0,false,Rx,0,8,0,40,68,5,FE,FE,0,1B
924022264,000001A0,false,Rx,0,8,0,40,6A,5,FE,FE,0,1C
924029090,000001A0,false,Rx,0,8,0,40,68,5,FE,FE,0,1D
924036112,000001A0,false,Rx,0,8,0,40,70,5,FE,FE,0,1E
924044454,000001A0,false,Rx,0,8,0,40,70,5,FE,FE,0,1F
924050146,000001A0,false,Rx,0,8,0,40,78,5,FE,FE,0,10
924057252,000001A0,false,Rx,0,8,0,40,7A,5,FE,FE,0,11
924064501,000001A0,false,Rx,0,8,0,40,7E,5,FE,FE,0,12
924071184,000001A0,false,Rx,0,8,0,40,86,5,FE,FE,0,13
924078215,000001A0,false,Rx,0,8,0,40,8C,5,FE,FE,0,14
924085326,000001A0,false,Rx,0,8,0,40,90,5,FE,FE,0,15
924092222,000001A0,false,Rx,0,8,0,40,8E,5,FE,FE,0,16
924099323,000001A0,false,Rx,0,8,0,40,8E,5,FE,FE,0,17
924106167,000001A0,false,Rx,0,8,0,40,8C,5,FE,FE,0,18
924113217,000001A0,false,Rx,0,8,0,40,96,5,FE,FE,0,19
924120287,000001A0,false,Rx,0,8,0,40,98,5,FE,FE,0,1A
924127291,000001A0,false,Rx,0,8,0,40,9E,5,FE,FE,0,1B
924134239,000001A0,false,Rx,0,8,0,40,A8,5,FE,FE,0,1C
924141313,000001A0,false,Rx,0,8,0,40,A6,5,FE,FE,0,1D
924148231,000001A0,false,Rx,0,8,0,40,A2,5,FE,FE,0,1E
924155219,000001A0,false,Rx,0,8,0,40,96,5,FE,FE,0,1F
924162322,000001A0,false,Rx,0,8,0,40,96,5,FE,FE,0,10
924169225,000001A0,false,Rx,0,8,0,40,9E,5,FE,FE,0,11
924176180,000001A0,false,Rx,0,8,0,40,9C,5,FE,FE,0,12
924184746,000001A0,false,Rx,0,8,0,40,A0,5,FE,FE,0,13
924190231,000001A0,false,Rx,0,8,0,40,9C,5,FE,FE,0,14
924197314,000001A0,false,Rx,0,8,0,40,9C,5,FE,FE,0,15
924204789,000001A0,false,Rx,0,8,0,40,98,5,FE,FE,0,16
924211289,000001A0,false,Rx,0,8,0,40,98,5,FE,FE,0,17
924218300,000001A0,false,Rx,0,8,0,40,8C,5,FE,FE,0,18
924225369,000001A0,false,Rx,0,8,0,40,84,5,FE,FE,0,19
924232232,000001A0,false,Rx,0,8,0,40,80,5,FE,FE,0,1A
924239346,000001A0,false,Rx,0,8,0,40,86,5,FE,FE,0,1B
924246264,000001A0,false,Rx,0,8,0,40,8E,5,FE,FE,0,1C
924253258,000001A0,false,Rx,0,8,0,40,A4,5,FE,FE,0,1D
924260334,000001A0,false,Rx,0,8,0,40,B4,5,FE,FE,0,1E
924267281,000001A0,false,Rx,0,8,0,40,BC,5,FE,FE,0,1F
924274323,000001A0,false,Rx,0,8,0,40,BC,5,FE,FE,0,10
924281347,000001A0,false,Rx,0,8,0,40,BC,5,FE,FE,0,11
924288237,000001A0,false,Rx,0,8,0,40,B0,5,FE,FE,0,12
924295279,000001A0,false,Rx,0,8,0,40,B0,5,FE,FE,0,13
924302375,000001A0,false,Rx,0,8,0,40,9C,5,FE,FE,0,14
924309241,000001A0,false,Rx,0,8,0,40,8C,5,FE,FE,0,15
924316265,000001A0,false,Rx,0,8,0,40,88,5,FE,FE,0,16
924323427,000001A0,false,Rx,0,8,0,40,8E,5,FE,FE,0,17
924330268,000001A0,false,Rx,0,8,0,40,A6,5,FE,FE,0,18
924337307,000001A0,false,Rx,0,8,0,40,AA,5,FE,FE,0,19
924345117,000001A0,false,Rx,0,8,0,40,D0,5,FE,FE,0,1A
924351308,000001A0,false,Rx,0,8,0,40,DA,5,FE,FE,0,1B
924358401,000001A0,false,Rx,0,8,0,40,E6,5,FE,FE,0,1C
924365304,000001A0,false,Rx,0,8,0,40,DA,5,FE,FE,0,1D
924372417,000001A0,false,Rx,0,8,0,40,CC,5,FE,FE,0,1E
924379480,000001A0,false,Rx,0,8,0,40,C0,5,FE,FE,0,1F
924386303,000001A0,false,Rx,0,8,0,40,C2,5,FE,FE,0,10
924393328,000001A0,false,Rx,0,8,0,40,BC,5,FE,FE,0,11
924400427,000001A0,false,Rx,0,8,0,40,B8,5,FE,FE,0,12
924407276,000001A0,false,Rx,0,8,0,40,B6,5,FE,FE,0,13
924414369,000001A0,false,Rx,0,8,0,40,B4,5,FE,FE,0,14
924421453,000001A0,false,Rx,0,8,0,40,B4,5,FE,FE,0,15
924428355,000001A0,false,Rx,0,8,0,40,BA,5,FE,FE,0,16
924435340,000001A0,false,Rx,0,8,0,40,B8,5,FE,FE,0,17
924442450,000001A0,false,Rx,0,8,0,40,B8,5,FE,FE,0,18
924449351,000001A0,false,Rx,0,8,0,40,BE,5,FE,FE,0,19
924456312,000001A0,false,Rx,0,8,0,40,C4,5,FE,FE,0,1A
924463462,000001A0,false,Rx,0,8,0,40,CC,5,FE,FE,0,1B
924470332,000001A0,false,Rx,0,8,0,40,C4,5,FE,FE,0,1C
924477325,000001A0,false,Rx,0,8,0,40,CC,5,FE,FE,0,1D
924485363,000001A0,false,Rx,0,8,0,40,D0,5,FE,FE,0,1E
924491389,000001A0,false,Rx,0,8,0,40,D2,5,FE,FE,0,1F
924498498,000001A0,false,Rx,0,8,0,40,CA,5,FE,FE,0,10
924505430,000001A0,false,Rx,0,8,0,40,C4,5,FE,FE,0,11
924512453,000001A0,false,Rx,0,8,0,40,C6,5,FE,FE,0,12
924519547,000001A0,false,Rx,0,8,0,40,B8,5,FE,FE,0,13
924526389,000001A0,false,Rx,0,8,0,40,A8,5,FE,FE,0,14
924533387,000001A0,false,Rx,0,8,0,40,A6,5,FE,FE,0,15
924540545,000001A0,false,Rx,0,8,0,40,AC,5,FE,FE,0,16
924547383,000001A0,false,Rx,0,8,0,40,BE,5,FE,FE,0,17
924554492,000001A0,false,Rx,0,8,0,40,CC,5,FE,FE,0,18
924561510,000001A0,false,Rx,0,8,0,40,D2,5,FE,FE,0,19
924568633,000001A0,false,Rx,0,8,0,40,D2,5,FE,FE,0,1A
924575425,000001A0,false,Rx,0,8,0,40,CC,5,FE,FE,0,1B
924582530,000001A0,false,Rx,0,8,0,40,CC,5,FE,FE,0,1C
924589389,000001A0,false,Rx,0,8,0,40,D0,5,FE,FE,0,1D
924596395,000001A0,false,Rx,0,8,0,40,D0,5,FE,FE,0,1E
924603496,000001A0,false,Rx,0,8,0,40,DE,5,FE,FE,0,1F
924610414,000001A0,false,Rx,0,8,0,40,E6,5,FE,FE,0,10
924617451,000001A0,false,Rx,0,8,0,40,E4,5,FE,FE,0,11
924625616,000001A0,false,Rx,0,8,0,40,E2,5,FE,FE,0,12
924631473,000001A0,false,Rx,0,8,0,40,DC,5,FE,FE,0,13
924638520,000001A0,false,Rx,0,8,0,40,E0,5,FE,FE,0,14
924645631,000001A0,false,Rx,0,8,0,40,E0,5,FE,FE,0,15
924652445,000001A0,false,Rx,0,8,0,40,D6,5,FE,FE,0,16
924659558,000001A0,false,Rx,0,8,0,40,CC,5,FE,FE,0,17
924666551,000001A0,false,Rx,0,8,0,40,CC,5,FE,FE,0,18
924673524,000001A0,false,Rx,0,8,0,40,C6,5,FE,FE,0,19
924680604,000001A0,false,Rx,0,8,0,40,C4,5,FE,FE,0,1A
924687485,000001A0,false,Rx,0,8,0,40,C4,5,FE,FE,0,1B
924694551,000001A0,false,Rx,0,8,0,40,CA,5,FE,FE,0,1C
924701626,000001A0,false,Rx,0,8,0,40,D6,5,FE,FE,0,1D
924708509,000001A0,false,Rx,0,8,0,40,D6,5,FE,FE,0,1E
924715496,000001A0,false,Rx,0,8,0,40,DC,5,FE,FE,0,1F
924722591,000001A0,false,Rx,0,8,0,40,E0,5,FE,FE,0,10
924729536,000001A0,false,Rx,0,8,0,40,E0,5,FE,FE,0,11
924736477,000001A0,false,Rx,0,8,0,40,DA,5,FE,FE,0,12
924743613,000001A0,false,Rx,0,8,0,40,DC,5,FE,FE,0,13
924750561,000001A0,false,Rx,0,8,0,40,E6,5,FE,FE,0,14
924757563,000001A0,false,Rx,0,8,0,40,EC,5,FE,FE,0,15
924765854,000001A0,false,Rx,0,8,0,40,F0,5,FE,FE,0,16
924771551,000001A0,false,Rx,0,8,0,40,F2,5,FE,FE,0,17
924778598,000001A0,false,Rx,0,8,0,40,F8,5,FE,FE,0,18
924785863,000001A0,false,Rx,0,8,0,40,FE,5,FE,FE,0,19
924792553,000001A0,false,Rx,0,8,0,40,4,6,FE,FE,0,1A
924799670,000001A0,false,Rx,0,8,0,40,4,6,FE,FE,0,1B
924806530,000001A0,false,Rx,0,8,0,40,10,6,FE,FE,0,1C
924813576,000001A0,false,Rx,0,8,0,40,4,6,FE,FE,0,1D
924820728,000001A0,false,Rx,0,8,0,40,4,6,FE,FE,0,1E
924827551,000001A0,false,Rx,0,8,0,40,0,6,FE,FE,0,1F
924834499,000001A0,false,Rx,0,8,0,40,6,6,FE,FE,0,10
924841644,000001A0,false,Rx,0,8,0,40,2,6,FE,FE,0,11
924848629,000001A0,false,Rx,0,8,0,40,0,6,FE,FE,0,12
924855554,000001A0,false,Rx,0,8,0,40,0,6,FE,FE,0,13
924862651,000001A0,false,Rx,0,8,0,40,16,6,FE,FE,0,14
924869603,000001A0,false,Rx,0,8,0,40,16,6,FE,FE,0,15
924876548,000001A0,false,Rx,0,8,0,40,2C,6,FE,FE,0,16
924883684,000001A0,false,Rx,0,8,0,40,22,6,FE,FE,0,17
924890592,000001A0,false,Rx,0,8,0,40,10,6,FE,FE,0,18
924897740,000001A0,false,Rx,0,8,0,40,8,6,FE,FE,0,19
924906136,000001A0,false,Rx,0,8,0,40,E6,5,FE,FE,0,1A
924911605,000001A0,false,Rx,0,8,0,40,C2,5,FE,FE,0,1B
924918643,000001A0,false,Rx,0,8,0,40,C4,5,FE,FE,0,1C
924926067,000001A0,false,Rx,0,8,0,40,BA,5,FE,FE,0,1D
924932641,000001A0,false,Rx,0,8,0,40,BE,5,FE,FE,0,1E
924939689,000001A0,false,Rx,0,8,0,40,D2,5,FE,FE,0,1F
924946604,000001A0,false,Rx,0,8,0,40,FA,5,FE,FE,0,10
924953649,000001A0,false,Rx,0,8,0,40,12,6,FE,FE,0,11
924960719,000001A0,false,Rx,0,8,0,40,12,6,FE,FE,0,12
924967636,000001A0,false,Rx,0,8,0,40,2E,6,FE,FE,0,13
924974627,000001A0,false,Rx,0,8,0,40,34,6,FE,FE,0,14
924981705,000001A0,false,Rx,0,8,0,40,1C,6,FE,FE,0,15
924988615,000001A0,false,Rx,0,8,0,40,18,6,FE,FE,0,16
924995692,000001A0,false,Rx,0,8,0,40,6,6,FE,FE,0,17
925002725,000001A0,false,Rx,0,8,0,40,0A,6,FE,FE,0,18
925009701,000001A0,false,Rx,0,8,0,40,0A,6,FE,FE,0,19
925016604,000001A0,false,Rx,0,8,0,40,0A,6,FE,FE,0,1A
925023833,000001A0,false,Rx,0,8,0,40,6,6,FE,FE,0,1B
925030681,000001A0,false,Rx,0,8,0,40,6,6,FE,FE,0,1C
925037727,000001A0,false,Rx,0,8,0,40,8,6,FE,FE,0,1D
925046304,000001A0,false,Rx,0,8,0,40,1C,6,FE,FE,0,1E
925051705,000001A0,false,Rx,0,8,0,40,24,6,FE,FE,0,1F
925058749,000001A0,false,Rx,0,8,0,40,28,6,FE,FE,0,10
925066717,000001A0,false,Rx,0,8,0,40,24,6,FE,FE,0,11
925072692,000001A0,false,Rx,0,8,0,40,1C,6,FE,FE,0,12
925079745,000001A0,false,Rx,0,8,0,40,1C,6,FE,FE,0,13
925086718,000001A0,false,Rx,0,8,0,40,14,6,FE,FE,0,14
925093744,000001A0,false,Rx,0,8,0,40,12,6,FE,FE,0,15
925101019,000001A0,false,Rx,0,8,0,40,18,6,FE,FE,0,16
925107740,000001A0,false,Rx,0,8,0,40,1A,6,FE,FE,0,17
925114711,000001A0,false,Rx,0,8,0,40,24,6,FE,FE,0,18
925121810,000001A0,false,Rx,0,8,0,40,20,6,FE,FE,0,19
925128723,000001A0,false,Rx,0,8,0,40,20,6,FE,FE,0,1A
925135764,000001A0,false,Rx,0,8,0,40,20,6,FE,FE,0,1B
925142818,000001A0,false,Rx,0,8,0,40,24,6,FE,FE,0,1C
925149706,000001A0,false,Rx,0,8,0,40,28,6,FE,FE,0,1D
925156724,000001A0,false,Rx,0,8,0,40,24,6,FE,FE,0,1E
925163865,000001A0,false,Rx,0,8,0,40,34,6,FE,FE,0,1F
925170721,000001A0,false,Rx,0,8,0,40,48,6,FE,FE,0,10
925177836,000001A0,false,Rx,0,8,0,40,54,6,FE,FE,0,11
925184733,000001A0,false,Rx,0,8,0,40,50,6,FE,FE,0,12
925191735,000001A0,false,Rx,0,8,0,40,52,6,FE,FE,0,13
925198886,000001A0,false,Rx,0,8,0,40,64,6,FE,FE,0,14
925206707,000001A0,false,Rx,0,8,0,40,68,6,FE,FE,0,15
925212800,000001A0,false,Rx,0,8,0,40,6C,6,FE,FE,0,16
925220062,000001A0,false,Rx,0,8,0,40,6E,6,FE,FE,0,17
925226868,000001A0,false,Rx,0,8,0,40,6C,6,FE,FE,0,18
925233844,000001A0,false,Rx,0,8,0,40,6C,6,FE,FE,0,19
925241025,000001A0,false,Rx,0,8,0,40,66,6,FE,FE,0,1A
925247865,000001A0,false,Rx,0,8,0,40,5E,6,FE,FE,0,1B
925254835,000001A0,false,Rx,0,8,0,40,4E,6,FE,FE,0,1C
925261923,000001A0,false,Rx,0,8,0,40,44,6,FE,FE,0,1D
925268971,000001A0,false,Rx,0,8,0,40,48,6,FE,FE,0,1E
925275818,000001A0,false,Rx,0,8,0,40,34,6,FE,FE,0,1F
925282993,000001A0,false,Rx,0,8,0,40,26,6,FE,FE,0,10
925289867,000001A0,false,Rx,0,8,0,40,26,6,FE,FE,0,11
925297005,000001A0,false,Rx,0,8,0,40,2A,6,FE,FE,0,12
925304002,000001A0,false,Rx,0,8,0,40,44,6,FE,FE,0,13
925311025,000001A0,false,Rx,0,8,0,40,66,6,FE,FE,0,14
925317990,000001A0,false,Rx,0,8,0,40,70,6,FE,FE,0,15
925324881,000001A0,false,Rx,0,8,0,40,7C,6,FE,FE,0,16
925331947,000001A0,false,Rx,0,8,0,40,6E,6,FE,FE,0,17
925338996,000001A0,false,Rx,0,8,0,40,4A,6,FE,FE,0,18
925346922,000001A0,false,Rx,0,8,0,40,56,6,FE,FE,0,19
925352948,000001A0,false,Rx,0,8,0,40,56,6,FE,FE,0,1A
925359996,000001A0,false,Rx,0,8,0,40,4E,6,FE,FE,0,1B
925367048,000001A0,false,Rx,0,8,0,40,4A,6,FE,FE,0,1C
925373942,000001A0,false,Rx,0,8,0,40,36,6,FE,FE,0,1D
925381036,000001A0,false,Rx,0,8,0,40,36,6,FE,FE,0,1E
925387962,000001A0,false,Rx,0,8,0,40,3E,6,FE,FE,0,1F
925394943,000001A0,false,Rx,0,8,0,40,50,6,FE,FE,0,10
925402010,000001A0,false,Rx,0,8,0,40,62,6,FE,FE,0,11
925408916,000001A0,false,Rx,0,8,0,40,70,6,FE,FE,0,12
925415906,000001A0,false,Rx,0,8,0,40,70,6,FE,FE,0,13
925423086,000001A0,false,Rx,0,8,0,40,74,6,FE,FE,0,14
925429944,000001A0,false,Rx,0,8,0,40,6E,6,FE,FE,0,15
925437022,000001A0,false,Rx,0,8,0,40,6C,6,FE,FE,0,16
925444059,000001A0,false,Rx,0,8,0,40,6C,6,FE,FE,0,17
925451063,000001A0,false,Rx,0,8,0,40,70,6,FE,FE,0,18
925458006,000001A0,false,Rx,0,8,0,40,7A,6,FE,FE,0,19
925464898,000001A0,false,Rx,0,8,0,40,7C,6,FE,FE,0,1A
925472153,000001A0,false,Rx,0,8,0,40,7C,6,FE,FE,0,1B
925478995,000001A0,false,Rx,0,8,0,40,72,6,FE,FE,0,1C
925487107,000001A0,false,Rx,0,8,0,40,70,6,FE,FE,0,1D
925492975,000001A0,false,Rx,0,8,0,40,7C,6,FE,FE,0,1E
925500049,000001A0,false,Rx,0,8,0,40,7C,6,FE,FE,0,1F
925507190,000001A0,false,Rx,0,8,0,40,8A,6,FE,FE,0,10
925514059,000001A0,false,Rx,0,8,0,40,88,6,FE,FE,0,11
925521089,000001A0,false,Rx,0,8,0,40,84,6,FE,FE,0,12
925527953,000001A0,false,Rx,0,8,0,40,84,6,FE,FE,0,13
925534975,000001A0,false,Rx,0,8,0,40,82,6,FE,FE,0,14
925542123,000001A0,false,Rx,0,8,0,40,82,6,FE,FE,0,15
925549073,000001A0,false,Rx,0,8,0,40,8A,6,FE,FE,0,16
925556016,000001A0,false,Rx,0,8,0,40,8E,6,FE,FE,0,17
925563112,000001A0,false,Rx,0,8,0,40,8A,6,FE,FE,0,18
925570003,000001A0,false,Rx,0,8,0,40,86,6,FE,FE,0,19
925577043,000001A0,false,Rx,0,8,0,40,86,6,FE,FE,0,1A
925584142,000001A0,false,Rx,0,8,0,40,80,6,FE,FE,0,1B
925591004,000001A0,false,Rx,0,8,0,40,84,6,FE,FE,0,1C
925598152,000001A0,false,Rx,0,8,0,40,86,6,FE,FE,0,1D
925604993,000001A0,false,Rx,0,8,0,40,8E,6,FE,FE,0,1E
925612049,000001A0,false,Rx,0,8,0,40,92,6,FE,FE,0,1F
925619094,000001A0,false,Rx,0,8,0,40,92,6,FE,FE,0,10
925627537,000001A0,false,Rx,0,8,0,40,8E,6,FE,FE,0,11
925633043,000001A0,false,Rx,0,8,0,40,8C,6,FE,FE,0,12
925640088,000001A0,false,Rx,0,8,0,40,8C,6,FE,FE,0,13
925647590,000001A0,false,Rx,0,8,0,40,8C,6,FE,FE,0,14
925654061,000001A0,false,Rx,0,8,0,40,92,6,FE,FE,0,15
925661157,000001A0,false,Rx,0,8,0,40,8C,6,FE,FE,0,16
925668041,000001A0,false,Rx,0,8,0,40,94,6,FE,FE,0,17
925675105,000001A0,false,Rx,0,8,0,40,A0,6,FE,FE,0,18
925682177,000001A0,false,Rx,0,8,0,40,A4,6,FE,FE,0,19
925689030,000001A0,false,Rx,0,8,0,40,9E,6,FE,FE,0,1A
925696075,000001A0,false,Rx,0,8,0,40,9C,6,FE,FE,0,1B
925703174,000001A0,false,Rx,0,8,0,40,A2,6,FE,FE,0,1C
925710138,000001A0,false,Rx,0,8,0,40,A0,6,FE,FE,0,1D
925717213,000001A0,false,Rx,0,8,0,40,A4,6,FE,FE,0,1E
925724213,000001A0,false,Rx,0,8,0,40,B0,6,FE,FE,0,1F
925731093,000001A0,false,Rx,0,8,0,40,A6,6,FE,FE,0,10
925738185,000001A0,false,Rx,0,8,0,40,A4,6,FE,FE,0,11
925745109,000001A0,false,Rx,0,8,0,40,AC,6,FE,FE,0,12
925752186,000001A0,false,Rx,0,8,0,40,B4,6,FE,FE,0,13
925759234,000001A0,false,Rx,0,8,0,40,AE,6,FE,FE,0,14
925766095,000001A0,false,Rx,0,8,0,40,AC,6,FE,FE,0,15
925773201,000001A0,false,Rx,0,8,0,40,AC,6,FE,FE,0,16
925780391,000001A0,false,Rx,0,8,0,40,AE,6,FE,FE,0,17
925787845,000001A0,false,Rx,0,8,0,40,B2,6,FE,FE,0,18
925794199,000001A0,false,Rx,0,8,0,40,AE,6,FE,FE,0,19
925801245,000001A0,false,Rx,0,8,0,40,A8,6,FE,FE,0,1A
925808111,000001A0,false,Rx,0,8,0,40,AC,6,FE,FE,0,1B
925815142,000001A0,false,Rx,0,8,0,40,AE,6,FE,FE,0,1C
925822258,000001A0,false,Rx,0,8,0,40,B0,6,FE,FE,0,1D
925829161,000001A0,false,Rx,0,8,0,40,B0,6,FE,FE,0,1E
925836152,000001A0,false,Rx,0,8,0,40,BA,6,FE,FE,0,1F
925843243,000001A0,false,Rx,0,8,0,40,B8,6,FE,FE,0,10
925850243,000001A0,false,Rx,0,8,0,40,BC,6,FE,FE,0,11
925857222,000001A0,false,Rx,0,8,0,40,AA,6,FE,FE,0,12
925864285,000001A0,false,Rx,0,8,0,40,B0,6,FE,FE,0,13
925871200,000001A0,false,Rx,0,8,0,40,BE,6,FE,FE,0,14
925878283,000001A0,false,Rx,0,8,0,40,C0,6,FE,FE,0,15
925885211,000001A0,false,Rx,0,8,0,40,B6,6,FE,FE,0,16
925892235,000001A0,false,Rx,0,8,0,40,BE,6,FE,FE,0,17
925899271,000001A0,false,Rx,0,8,0,40,C8,6,FE,FE,0,18
925906132,000001A0,false,Rx,0,8,0,40,C8,6,FE,FE,0,19
925913178,000001A0,false,Rx,0,8,0,40,C8,6,FE,FE,0,1A
925920418,000001A0,false,Rx,0,8,0,40,CC,6,FE,FE,0,1B
925928158,000001A0,false,Rx,0,8,0,40,C4,6,FE,FE,0,1C
925934198,000001A0,false,Rx,0,8,0,40,CA,6,FE,FE,0,1D
925941295,000001A0,false,Rx,0,8,0,40,D2,6,FE,FE,0,1E
925948293,000001A0,false,Rx,0,8,0,40,D2,6,FE,FE,0,1F
925955201,000001A0,false,Rx,0,8,0,40,D4,6,FE,FE,0,10
925962343,000001A0,false,Rx,0,8,0,40,DC,6,FE,FE,0,11
925969273,000001A0,false,Rx,0,8,0,40,E4,6,FE,FE,0,12
925976196,000001A0,false,Rx,0,8,0,40,EA,6,FE,FE,0,13
925983355,000001A0,false,Rx,0,8,0,40,EA,6,FE,FE,0,14
925990248,000001A0,false,Rx,0,8,0,40,E6,6,FE,FE,0,15
925997302,000001A0,false,Rx,0,8,0,40,E4,6,FE,FE,0,16
926004387,000001A0,false,Rx,0,8,0,40,EA,6,FE,FE,0,17
926011264,000001A0,false,Rx,0,8,0,40,F4,6,FE,FE,0,18
926018368,000001A0,false,Rx,0,8,0,40,F4,6,FE,FE,0,19
926025321,000001A0,false,Rx,0,8,0,40,F0,6,FE,FE,0,1A
926032327,000001A0,false,Rx,0,8,0,40,E4,6,FE,FE,0,1B
926039371,000001A0,false,Rx,0,8,0,40,F6,6,FE,FE,0,1C
926046264,000001A0,false,Rx,0,8,0,40,FE,6,FE,FE,0,1D
926053331,000001A0,false,Rx,0,8,0,40,FE,6,FE,FE,0,1E
926060395,000001A0,false,Rx,0,8,0,40,F4,6,FE,FE,0,1F
926068366,000001A0,false,Rx,0,8,0,40,F6,6,FE,FE,0,10
926074387,000001A0,false,Rx,0,8,0,40,F8,6,FE,FE,0,11
926081392,000001A0,false,Rx,0,8,0,40,F8,6,FE,FE,0,12
926088334,000001A0,false,Rx,0,8,0,40,FA,6,FE,FE,0,13
926095297,000001A0,false,Rx,0,8,0,40,2,7,FE,FE,0,14
926102454,000001A0,false,Rx,0,8,0,40,0,7,FE,FE,0,15
926109288,000001A0,false,Rx,0,8,0,40,FE,6,FE,FE,0,16
926116357,000001A0,false,Rx,0,8,0,40,FC,6,FE,FE,0,17
926123474,000001A0,false,Rx,0,8,0,40,2,7,FE,FE,0,18
926130363,000001A0,false,Rx,0,8,0,40,0,7,FE,FE,0,19
926137359,000001A0,false,Rx,0,8,0,40,FA,6,FE,FE,0,1A
926144475,000001A0,false,Rx,0,8,0,40,FA,6,FE,FE,0,1B
926151375,000001A0,false,Rx,0,8,0,40,2,7,FE,FE,0,1C
926158383,000001A0,false,Rx,0,8,0,40,0C,7,FE,FE,0,1D
926165344,000001A0,false,Rx,0,8,0,40,0A,7,FE,FE,0,1E
926172401,000001A0,false,Rx,0,8,0,40,12,7,FE,FE,0,1F
926179456,000001A0,false,Rx,0,8,0,40,1E,7,FE,FE,0,10
926186313,000001A0,false,Rx,0,8,0,40,1A,7,FE,FE,0,11
926193412,000001A0,false,Rx,0,8,0,40,1C,7,FE,FE,0,12
926200470,000001A0,false,Rx,0,8,0,40,1E,7,FE,FE,0,13
926208506,000001A0,false,Rx,0,8,0,40,20,7,FE,FE,0,14
926214453,000001A0,false,Rx,0,8,0,40,2A,7,FE,FE,0,15
926221551,000001A0,false,Rx,0,8,0,40,28,7,FE,FE,0,16
926228664,000001A0,false,Rx,0,8,0,40,28,7,FE,FE,0,17
926235432,000001A0,false,Rx,0,8,0,40,2A,7,FE,FE,0,18
926242499,000001A0,false,Rx,0,8,0,40,36,7,FE,FE,0,19
926249553,000001A0,false,Rx,0,8,0,40,3C,7,FE,FE,0,1A
926256332,000001A0,false,Rx,0,8,0,40,48,7,FE,FE,0,1B
926263499,000001A0,false,Rx,0,8,0,40,46,7,FE,FE,0,1C
926270376,000001A0,false,Rx,0,8,0,40,42,7,FE,FE,0,1D
926277485,000001A0,false,Rx,0,8,0,40,4E,7,FE,FE,0,1E
926284422,000001A0,false,Rx,0,8,0,40,58,7,FE,FE,0,1F
926291478,000001A0,false,Rx,0,8,0,40,5A,7,FE,FE,0,10
926298565,000001A0,false,Rx,0,8,0,40,5C,7,FE,FE,0,11
926305456,000001A0,false,Rx,0,8,0,40,5A,7,FE,FE,0,12
926312454,000001A0,false,Rx,0,8,0,40,52,7,FE,FE,0,13
926319688,000001A0,false,Rx,0,8,0,40,54,7,FE,FE,0,14
926326465,000001A0,false,Rx,0,8,0,40,60,7,FE,FE,0,15
926333465,000001A0,false,Rx,0,8,0,40,6C,7,FE,FE,0,16
926340565,000001A0,false,Rx,0,8,0,40,64,7,FE,FE,0,17
926348865,000001A0,false,Rx,0,8,0,40,66,7,FE,FE,0,18
926354479,000001A0,false,Rx,0,8,0,40,5C,7,FE,FE,0,19
926361573,000001A0,false,Rx,0,8,0,40,5A,7,FE,FE,0,1A
926368900,000001A0,false,Rx,0,8,0,40,54,7,FE,FE,0,1B
926375482,000001A0,false,Rx,0,8,0,40,54,7,FE,FE,0,1C
926382617,000001A0,false,Rx,0,8,0,40,52,7,FE,FE,0,1D
926389679,000001A0,false,Rx,0,8,0,40,48,7,FE,FE,0,1E
926396499,000001A0,false,Rx,0,8,0,40,48,7,FE,FE,0,1F
926403596,000001A0,false,Rx,0,8,0,40,46,7,FE,FE,0,10
926410557,000001A0,false,Rx,0,8,0,40,40,7,FE,FE,0,11
926417639,000001A0,false,Rx,0,8,0,40,3E,7,FE,FE,0,12
926424595,000001A0,false,Rx,0,8,0,40,46,7,FE,FE,0,13
926431557,000001A0,false,Rx,0,8,0,40,4E,7,FE,FE,0,14
926438574,000001A0,false,Rx,0,8,0,40,44,7,FE,FE,0,15
926445565,000001A0,false,Rx,0,8,0,40,3E,7,FE,FE,0,16
926452546,000001A0,false,Rx,0,8,0,40,42,7,FE,FE,0,17
926459596,000001A0,false,Rx,0,8,0,40,42,7,FE,FE,0,18
926466536,000001A0,false,Rx,0,8,0,40,4A,7,FE,FE,0,19
926473582,000001A0,false,Rx,0,8,0,40,4A,7,FE,FE,0,1A
926480771,000001A0,false,Rx,0,8,0,40,48,7,FE,FE,0,1B
926487543,000001A0,false,Rx,0,8,0,40,54,7,FE,FE,0,1C
926494497,000001A0,false,Rx,0,8,0,40,52,7,FE,FE,0,1D
926501689,000001A0,false,Rx,0,8,0,40,5E,7,FE,FE,0,1E
926509220,000001A0,false,Rx,0,8,0,40,5C,7,FE,FE,0,1F
926515653,000001A0,false,Rx,0,8,0,40,66,7,FE,FE,0,10
926522650,000001A0,false,Rx,0,8,0,40,72,7,FE,FE,0,11
926529685,000001A0,false,Rx,0,8,0,40,7E,7,FE,FE,0,12
926536527,000001A0,false,Rx,0,8,0,40,6C,7,FE,FE,0,13
926543696,000001A0,false,Rx,0,8,0,40,6C,7,FE,FE,0,14
926550673,000001A0,false,Rx,0,8,0,40,78,7,FE,FE,0,15
926557700,000001A0,false,Rx,0,8,0,40,7A,7,FE,FE,0,16
926564562,000001A0,false,Rx,0,8,0,40,7A,7,FE,FE,0,17
926571610,000001A0,false,Rx,0,8,0,40,78,7,FE,FE,0,18
926578687,000001A0,false,Rx,0,8,0,40,7A,7,FE,FE,0,19
926585584,000001A0,false,Rx,0,8,0,40,80,7,FE,FE,0,1A
926592718,000001A0,false,Rx,0,8,0,40,74,7,FE,FE,0,1B
926599704,000001A0,false,Rx,0,8,0,40,72,7,FE,FE,0,1C
926606579,000001A0,false,Rx,0,8,0,40,76,7,FE,FE,0,1D
926613637,000001A0,false,Rx,0,8,0,40,7A,7,FE,FE,0,1E
926620745,000001A0,false,Rx,0,8,0,40,7A,7,FE,FE,0,1F
926627685,000001A0,false,Rx,0,8,0,40,78,7,FE,FE,0,10
926634680,000001A0,false,Rx,0,8,0,40,7A,7,FE,FE,0,11
926641732,000001A0,false,Rx,0,8,0,40,7A,7,FE,FE,0,12
926649522,000001A0,false,Rx,0,8,0,40,78,7,FE,FE,0,13
926655710,000001A0,false,Rx,0,8,0,40,80,7,FE,FE,0,14
926662721,000001A0,false,Rx,0,8,0,40,94,7,FE,FE,0,15
926669641,000001A0,false,Rx,0,8,0,40,96,7,FE,FE,0,16
926676669,000001A0,false,Rx,0,8,0,40,A4,7,FE,FE,0,17
926683758,000001A0,false,Rx,0,8,0,40,A6,7,FE,FE,0,18
926690679,000001A0,false,Rx,0,8,0,40,A0,7,FE,FE,0,19
926697811,000001A0,false,Rx,0,8,0,40,A6,7,FE,FE,0,1A
926704670,000001A0,false,Rx,0,8,0,40,A8,7,FE,FE,0,1B
926711718,000001A0,false,Rx,0,8,0,40,B2,7,FE,FE,0,1C
926718744,000001A0,false,Rx,0,8,0,40,BC,7,FE,FE,0,1D
926725711,000001A0,false,Rx,0,8,0,40,BE,7,FE,FE,0,1E
926732775,000001A0,false,Rx,0,8,0,40,BE,7,FE,FE,0,1F
926739759,000001A0,false,Rx,0,8,0,40,C8,7,FE,FE,0,10
926746718,000001A0,false,Rx,0,8,0,40,CE,7,FE,FE,0,11
926753758,000001A0,false,Rx,0,8,0,40,D2,7,FE,FE,0,12
926761184,000001A0,false,Rx,0,8,0,40,CC,7,FE,FE,0,13
926767767,000001A0,false,Rx,0,8,0,40,CA,7,FE,FE,0,14
926774759,000001A0,false,Rx,0,8,0,40,CC,7,FE,FE,0,15
926781786,000001A0,false,Rx,0,8,0,40,D2,7,FE,FE,0,16
926789750,000001A0,false,Rx,0,8,0,40,CE,7,FE,FE,0,17
926795736,000001A0,false,Rx,0,8,0,40,C4,7,FE,FE,0,18
926802892,000001A0,false,Rx,0,8,0,40,D2,7,FE,FE,0,19
926809815,000001A0,false,Rx,0,8,0,40,D8,7,FE,FE,0,1A
926816691,000001A0,false,Rx,0,8,0,40,D6,7,FE,FE,0,1B
926823872,000001A0,false,Rx,0,8,0,40,CE,7,FE,FE,0,1C
926830977,000001A0,false,Rx,0,8,0,40,CA,7,FE,FE,0,1D
926837863,000001A0,false,Rx,0,8,0,40,C8,7,FE,FE,0,1E
926844796,000001A0,false,Rx,0,8,0,40,CC,7,FE,FE,0,1F
926851820,000001A0,false,Rx,0,8,0,40,D0,7,FE,FE,0,10
926858841,000001A0,false,Rx,0,8,0,40,D6,7,FE,FE,0,11
926865797,000001A0,false,Rx,0,8,0,40,CC,7,FE,FE,0,12
926872804,000001A0,false,Rx,0,8,0,40,CC,7,FE,FE,0,13
926879855,000001A0,false,Rx,0,8,0,40,DA,7,FE,FE,0,14
926886712,000001A0,false,Rx,0,8,0,40,DE,7,FE,FE,0,15
926893827,000001A0,false,Rx,0,8,0,40,D4,7,FE,FE,0,16
926901147,000001A0,false,Rx,0,8,0,40,D6,7,FE,FE,0,17
926907824,000001A0,false,Rx,0,8,0,40,DE,7,FE,FE,0,18
926914765,000001A0,false,Rx,0,8,0,40,DA,7,FE,FE,0,19
926921947,000001A0,false,Rx,0,8,0,40,E6,7,FE,FE,0,1A
926930058,000001A0,false,Rx,0,8,0,40,EA,7,FE,FE,0,1B
926935812,000001A0,false,Rx,0,8,0,40,E2,7,FE,FE,0,1C
926942963,000001A0,false,Rx,0,8,0,40,E4,7,FE,FE,0,1D
926950106,000001A0,false,Rx,0,8,0,40,EE,7,FE,FE,0,1E
926956969,000001A0,false,Rx,0,8,0,40,F8,7,FE,FE,0,1F
926963964,000001A0,false,Rx,0,8,0,40,FC,7,FE,FE,0,10
926970978,000001A0,false,Rx,0,8,0,40,FC,7,FE,FE,0,11
926977952,000001A0,false,Rx,0,8,0,40,FC,7,FE,FE,0,12
926984818,000001A0,false,Rx,0,8,0,40,0A,8,FE,FE,0,13
926991872,000001A0,false,Rx,0,8,0,40,0C,8,FE,FE,0,14
926998942,000001A0,false,Rx,0,8,0,40,0E,8,FE,FE,0,15
927005839,000001A0,false,Rx,0,8,0,40,8,8,FE,FE,0,16
927012935,000001A0,false,Rx,0,8,0,40,8,8,FE,FE,0,17
927019939,000001A0,false,Rx,0,8,0,40,14,8,FE,FE,0,18
927027001,000001A0,false,Rx,0,8,0,40,1C,8,FE,FE,0,19
927033872,000001A0,false,Rx,0,8,0,40,1C,8,FE,FE,0,1A
927040995,000001A0,false,Rx,0,8,0,40,1A,8,FE,FE,0,1B
927047893,000001A0,false,Rx,0,8,0,40,1A,8,FE,FE,0,1C
927054922,000001A0,false,Rx,0,8,0,40,18,8,FE,FE,0,1D
927061975,000001A0,false,Rx,0,8,0,40,22,8,FE,FE,0,1E
927070299,000001A0,false,Rx,0,8,0,40,28,8,FE,FE,0,1F
927075918,000001A0,false,Rx,0,8,0,40,28,8,FE,FE,0,10
927082982,000001A0,false,Rx,0,8,0,40,1E,8,FE,FE,0,11
927090315,000001A0,false,Rx,0,8,0,40,18,8,FE,FE,0,12
927096957,000001A0,false,Rx,0,8,0,40,16,8,FE,FE,0,13
927103987,000001A0,false,Rx,0,8,0,40,20,8,FE,FE,0,14
927110945,000001A0,false,Rx,0,8,0,40,26,8,FE,FE,0,15
927117981,000001A0,false,Rx,0,8,0,40,24,8,FE,FE,0,16
927124918,000001A0,false,Rx,0,8,0,40,28,8,FE,FE,0,17
927131997,000001A0,false,Rx,0,8,0,40,24,8,FE,FE,0,18
927138970,000001A0,false,Rx,0,8,0,40,1E,8,FE,FE,0,19
927145961,000001A0,false,Rx,0,8,0,40,24,8,FE,FE,0,1A
927152957,000001A0,false,Rx,0,8,0,40,2E,8,FE,FE,0,1B
927160001,000001A0,false,Rx,0,8,0,40,3C,8,FE,FE,0,1C
927166970,000001A0,false,Rx,0,8,0,40,3E,8,FE,FE,0,1D
927174061,000001A0,false,Rx,0,8,0,40,38,8,FE,FE,0,1E
927180984,000001A0,false,Rx,0,8,0,40,32,8,FE,FE,0,1F
927187970,000001A0,false,Rx,0,8,0,40,36,8,FE,FE,0,10
927194933,000001A0,false,Rx,0,8,0,40,32,8,FE,FE,0,11
927202038,000001A0,false,Rx,0,8,0,40,36,8,FE,FE,0,12
927210468,000001A0,false,Rx,0,8,0,40,42,8,FE,FE,0,13
927216012,000001A0,false,Rx,0,8,0,40,3A,8,FE,FE,0,14
927223123,000001A0,false,Rx,0,8,0,40,42,8,FE,FE,0,15
927230519,000001A0,false,Rx,0,8,0,40,48,8,FE,FE,0,16
927237182,000001A0,false,Rx,0,8,0,40,48,8,FE,FE,0,17
927244165,000001A0,false,Rx,0,8,0,40,50,8,FE,FE,0,18
927251083,000001A0,false,Rx,0,8,0,40,46,8,FE,FE,0,19
927258090,000001A0,false,Rx,0,8,0,40,4C,8,FE,FE,0,1A
927264959,000001A0,false,Rx,0,8,0,40,5E,8,FE,FE,0,1B
927272058,000001A0,false,Rx,0,8,0,40,5A,8,FE,FE,0,1C
927279077,000001A0,false,Rx,0,8,0,40,5A,8,FE,FE,0,1D
927285972,000001A0,false,Rx,0,8,0,40,5C,8,FE,FE,0,1E
927293094,000001A0,false,Rx,0,8,0,40,62,8,FE,FE,0,1F
927300072,000001A0,false,Rx,0,8,0,40,60,8,FE,FE,0,10
927307105,000001A0,false,Rx,0,8,0,40,5E,8,FE,FE,0,11
927314049,000001A0,false,Rx,0,8,0,40,64,8,FE,FE,0,12
927321128,000001A0,false,Rx,0,8,0,40,66,8,FE,FE,0,13
927328038,000001A0,false,Rx,0,8,0,40,6E,8,FE,FE,0,14
927335065,000001A0,false,Rx,0,8,0,40,7A,8,FE,FE,0,15
927342179,000001A0,false,Rx,0,8,0,40,7E,8,FE,FE,0,16
927349064,000001A0,false,Rx,0,8,0,40,74,8,FE,FE,0,17
927356088,000001A0,false,Rx,0,8,0,40,7E,8,FE,FE,0,18
927363121,000001A0,false,Rx,0,8,0,40,8C,8,FE,FE,0,19
927370841,000001A0,false,Rx,0,8,0,40,80,8,FE,FE,0,1A
927377149,000001A0,false,Rx,0,8,0,40,80,8,FE,FE,0,1B
927384123,000001A0,false,Rx,0,8,0,40,80,8,FE,FE,0,1C
927391082,000001A0,false,Rx,0,8,0,40,76,8,FE,FE,0,1D
927398211,000001A0,false,Rx,0,8,0,40,74,8,FE,FE,0,1E
927405079,000001A0,false,Rx,0,8,0,40,7A,8,FE,FE,0,1F
927412101,000001A0,false,Rx,0,8,0,40,8A,8,FE,FE,0,10
927419174,000001A0,false,Rx,0,8,0,40,8C,8,FE,FE,0,11
927426157,000001A0,false,Rx,0,8,0,40,8A,8,FE,FE,0,12
927433185,000001A0,false,Rx,0,8,0,40,92,8,FE,FE,0,13
927440190,000001A0,false,Rx,0,8,0,40,9A,8,FE,FE,0,14
927447198,000001A0,false,Rx,0,8,0,40,98,8,FE,FE,0,15
927454178,000001A0,false,Rx,0,8,0,40,96,8,FE,FE,0,16
927461153,000001A0,false,Rx,0,8,0,40,98,8,FE,FE,0,17
927468135,000001A0,false,Rx,0,8,0,40,A8,8,FE,FE,0,18
927475109,000001A0,false,Rx,0,8,0,40,A2,8,FE,FE,0,19
927482208,000001A0,false,Rx,0,8,0,40,96,8,FE,FE,0,1A
927489140,000001A0,false,Rx,0,8,0,40,A2,8,FE,FE,0,1B
927496134,000001A0,false,Rx,0,8,0,40,AC,8,FE,FE,0,1C
927503183,000001A0,false,Rx,0,8,0,40,AA,8,FE,FE,0,1D
927511132,000001A0,false,Rx,0,8,0,40,A8,8,FE,FE,0,1E
927517173,000001A0,false,Rx,0,8,0,40,AE,8,FE,FE,0,1F
927524218,000001A0,false,Rx,0,8,0,40,AE,8,FE,FE,0,10
927531159,000001A0,false,Rx,0,8,0,40,B2,8,FE,FE,0,11
927538215,000001A0,false,Rx,0,8,0,40,C0,8,FE,FE,0,12
927545184,000001A0,false,Rx,0,8,0,40,BA,8,FE,FE,0,13
927552268,000001A0,false,Rx,0,8,0,40,B2,8,FE,FE,0,14
927559196,000001A0,false,Rx,0,8,0,40,BA,8,FE,FE,0,15
927566207,000001A0,false,Rx,0,8,0,40,BE,8,FE,FE,0,16
927573217,000001A0,false,Rx,0,8,0,40,BC,8,FE,FE,0,17
927580218,000001A0,false,Rx,0,8,0,40,C4,8,FE,FE,0,18
927587208,000001A0,false,Rx,0,8,0,40,CE,8,FE,FE,0,19
927594213,000001A0,false,Rx,0,8,0,40,C6,8,FE,FE,0,1A
927601271,000001A0,false,Rx,0,8,0,40,D0,8,FE,FE,0,1B
927608209,000001A0,false,Rx,0,8,0,40,D4,8,FE,FE,0,1C
927615204,000001A0,false,Rx,0,8,0,40,CA,8,FE,FE,0,1D
927622315,000001A0,false,Rx,0,8,0,40,D0,8,FE,FE,0,1E
927629242,000001A0,false,Rx,0,8,0,40,D8,8,FE,FE,0,1F
927636239,000001A0,false,Rx,0,8,0,40,DC,8,FE,FE,0,10
927643269,000001A0,false,Rx,0,8,0,40,DC,8,FE,FE,0,11
927651341,000001A0,false,Rx,0,8,0,40,E6,8,FE,FE,0,12
927657210,000001A0,false,Rx,0,8,0,40,E6,8,FE,FE,0,13
927664292,000001A0,false,Rx,0,8,0,40,EA,8,FE,FE,0,14
927671360,000001A0,false,Rx,0,8,0,40,E4,8,FE,FE,0,15
927678283,000001A0,false,Rx,0,8,0,40,E2,8,FE,FE,0,16
927685223,000001A0,false,Rx,0,8,0,40,EE,8,FE,FE,0,17
927692224,000001A0,false,Rx,0,8,0,40,F0,8,FE,FE,0,18
927699343,000001A0,false,Rx,0,8,0,40,F4,8,FE,FE,0,19
927706234,000001A0,false,Rx,0,8,0,40,FC,8,FE,FE,0,1A
927713307,000001A0,false,Rx,0,8,0,40,FA,8,FE,FE,0,1B
927720312,000001A0,false,Rx,0,8,0,40,F6,8,FE,FE,0,1C
927727220,000001A0,false,Rx,0,8,0,40,FE,8,FE,FE,0,1D
927734290,000001A0,false,Rx,0,8,0,40,6,9,FE,FE,0,1E
927741333,000001A0,false,Rx,0,8,0,40,2,9,FE,FE,0,1F
927748353,000001A0,false,Rx,0,8,0,40,2,9,FE,FE,0,10
927755298,000001A0,false,Rx,0,8,0,40,0,9,FE,FE,0,11
927762358,000001A0,false,Rx,0,8,0,40,4,9,FE,FE,0,12
927769344,000001A0,false,Rx,0,8,0,40,0A,9,FE,FE,0,13
927776370,000001A0,false,Rx,0,8,0,40,8,9,FE,FE,0,14
927783387,000001A0,false,Rx,0,8,0,40,0E,9,FE,FE,0,15
927791545,000001A0,false,Rx,0,8,0,40,0A,9,FE,FE,0,16
927797357,000001A0,false,Rx,0,8,0,40,4,9,FE,FE,0,17
927804414,000001A0,false,Rx,0,8,0,40,10,9,FE,FE,0,18
927811573,000001A0,false,Rx,0,8,0,40,16,9,FE,FE,0,19
927818450,000001A0,false,Rx,0,8,0,40,1A,9,FE,FE,0,1A
927825346,000001A0,false,Rx,0,8,0,40,1E,9,FE,FE,0,1B
927832355,000001A0,false,Rx,0,8,0,40,1A,9,FE,FE,0,1C
927839360,000001A0,false,Rx,0,8,0,40,1C,9,FE,FE,0,1D
927846345,000001A0,false,Rx,0,8,0,40,1E,9,FE,FE,0,1E
927853394,000001A0,false,Rx,0,8,0,40,30,9,FE,FE,0,1F
927860391,000001A0,false,Rx,0,8,0,40,24,9,FE,FE,0,10
927867377,000001A0,false,Rx,0,8,0,40,26,9,FE,FE,0,11
927874320,000001A0,false,Rx,0,8,0,40,26,9,FE,FE,0,12
927881431,000001A0,false,Rx,0,8,0,40,2A,9,FE,FE,0,13
927888340,000001A0,false,Rx,0,8,0,40,38,9,FE,FE,0,14
927895372,000001A0,false,Rx,0,8,0,40,2E,9,FE,FE,0,15
927902485,000001A0,false,Rx,0,8,0,40,30,9,FE,FE,0,16
927909355,000001A0,false,Rx,0,8,0,40,3A,9,FE,FE,0,17
927916384,000001A0,false,Rx,0,8,0,40,34,9,FE,FE,0,18
927923526,000001A0,false,Rx,0,8,0,40,38,9,FE,FE,0,19
927931903,000001A0,false,Rx,0,8,0,40,42,9,FE,FE,0,1A
927937499,000001A0,false,Rx,0,8,0,40,38,9,FE,FE,0,1B
927944334,000001A0,false,Rx,0,8,0,40,34,9,FE,FE,0,1C
927951953,000001A0,false,Rx,0,8,0,40,46,9,FE,FE,0,1D
927958470,000001A0,false,Rx,0,8,0,40,46,9,FE,FE,0,1E
927965427,000001A0,false,Rx,0,8,0,40,48,9,FE,FE,0,1F
927972438,000001A0,false,Rx,0,8,0,40,50,9,FE,FE,0,10
927979449,000001A0,false,Rx,0,8,0,40,4E,9,FE,FE,0,11
927986425,000001A0,false,Rx,0,8,0,40,44,9,FE,FE,0,12
927993443,000001A0,false,Rx,0,8,0,40,54,9,FE,FE,0,13
928000537,000001A0,false,Rx,0,8,0,40,62,9,FE,FE,0,14
928007450,000001A0,false,Rx,0,8,0,40,54,9,FE,FE,0,15
928014427,000001A0,false,Rx,0,8,0,40,58,9,FE,FE,0,16
928021590,000001A0,false,Rx,0,8,0,40,58,9,FE,FE,0,17
928028505,000001A0,false,Rx,0,8,0,40,5E,9,FE,FE,0,18
928035426,000001A0,false,Rx,0,8,0,40,5A,9,FE,FE,0,19
928042533,000001A0,false,Rx,0,8,0,40,5E,9,FE,FE,0,1A
928049493,000001A0,false,Rx,0,8,0,40,60,9,FE,FE,0,1B
928056534,000001A0,false,Rx,0,8,0,40,5E,9,FE,FE,0,1C
928063555,000001A0,false,Rx,0,8,0,40,6E,9,FE,FE,0,1D
928070427,000001A0,false,Rx,0,8,0,40,6E,9,FE,FE,0,1E
928077544,000001A0,false,Rx,0,8,0,40,6A,9,FE,FE,0,1F
928084446,000001A0,false,Rx,0,8,0,40,6C,9,FE,FE,0,10
928092275,000001A0,false,Rx,0,8,0,40,70,9,FE,FE,0,11
928098570,000001A0,false,Rx,0,8,0,40,7C,9,FE,FE,0,12
928105496,000001A0,false,Rx,0,8,0,40,78,9,FE,FE,0,13
928112552,000001A0,false,Rx,0,8,0,40,6A,9,FE,FE,0,14
928119580,000001A0,false,Rx,0,8,0,40,7E,9,FE,FE,0,15
928126543,000001A0,false,Rx,0,8,0,40,82,9,FE,FE,0,16
928133590,000001A0,false,Rx,0,8,0,40,86,9,FE,FE,0,17
928140588,000001A0,false,Rx,0,8,0,40,8A,9,FE,FE,0,18
928147525,000001A0,false,Rx,0,8,0,40,84,9,FE,FE,0,19
928154528,000001A0,false,Rx,0,8,0,40,84,9,FE,FE,0,1A
928161593,000001A0,false,Rx,0,8,0,40,92,9,FE,FE,0,1B
928168581,000001A0,false,Rx,0,8,0,40,8E,9,FE,FE,0,1C
928175608,000001A0,false,Rx,0,8,0,40,8A,9,FE,FE,0,1D
928182588,000001A0,false,Rx,0,8,0,40,9A,9,FE,FE,0,1E
928189525,000001A0,false,Rx,0,8,0,40,92,9,FE,FE,0,1F
928196521,000001A0,false,Rx,0,8,0,40,9C,9,FE,FE,0,10
928203660,000001A0,false,Rx,0,8,0,40,A8,9,FE,FE,0,11
928210547,000001A0,false,Rx,0,8,0,40,A4,9,FE,FE,0,12
928217628,000001A0,false,Rx,0,8,0,40,A8,9,FE,FE,0,13
928224615,000001A0,false,Rx,0,8,0,40,AA,9,FE,FE,0,14
928232543,000001A0,false,Rx,0,8,0,40,A6,9,FE,FE,0,15
928238669,000001A0,false,Rx,0,8,0,40,B4,9,FE,FE,0,16
928245576,000001A0,false,Rx,0,8,0,40,B8,9,FE,FE,0,17
928252613,000001A0,false,Rx,0,8,0,40,AE,9,FE,FE,0,18
928259617,000001A0,false,Rx,0,8,0,40,AA,9,FE,FE,0,19
928266521,000001A0,false,Rx,0,8,0,40,BA,9,FE,FE,0,1A
928273694,000001A0,false,Rx,0,8,0,40,B8,9,FE,FE,0,1B
928280604,000001A0,false,Rx,0,8,0,40,B6,9,FE,FE,0,1C
928287596,000001A0,false,Rx,0,8,0,40,B0,9,FE,FE,0,1D
928294519,000001A0,false,Rx,0,8,0,40,BE,9,FE,FE,0,1E
928301650,000001A0,false,Rx,0,8,0,40,C6,9,FE,FE,0,1F
928308642,000001A0,false,Rx,0,8,0,40,CC,9,FE,FE,0,10
928315608,000001A0,false,Rx,0,8,0,40,CC,9,FE,FE,0,11
928322720,000001A0,false,Rx,0,8,0,40,C2,9,FE,FE,0,12
928329662,000001A0,false,Rx,0,8,0,40,C4,9,FE,FE,0,13
928336645,000001A0,false,Rx,0,8,0,40,DC,9,FE,FE,0,14
928343723,000001A0,false,Rx,0,8,0,40,E6,9,FE,FE,0,15
928350647,000001A0,false,Rx,0,8,0,40,DA,9,FE,FE,0,16
928357720,000001A0,false,Rx,0,8,0,40,CC,9,FE,FE,0,17
928364619,000001A0,false,Rx,0,8,0,40,CA,9,FE,FE,0,18
928373061,000001A0,false,Rx,0,8,0,40,E0,9,FE,FE,0,19
928378679,000001A0,false,Rx,0,8,0,40,DE,9,FE,FE,0,1A
928385625,000001A0,false,Rx,0,8,0,40,E0,9,FE,FE,0,1B
928392852,000001A0,false,Rx,0,8,0,40,E0,9,FE,FE,0,1C
928399741,000001A0,false,Rx,0,8,0,40,D4,9,FE,FE,0,1D
928406644,000001A0,false,Rx,0,8,0,40,E2,9,FE,FE,0,1E
928413740,000001A0,false,Rx,0,8,0,40,EC,9,FE,FE,0,1F
928420909,000001A0,false,Rx,0,8,0,40,EC,9,FE,FE,0,10
928427721,000001A0,false,Rx,0,8,0,40,EA,9,FE,FE,0,11
928434664,000001A0,false,Rx,0,8,0,40,EC,9,FE,FE,0,12
928441725,000001A0,false,Rx,0,8,0,40,EA,9,FE,FE,0,13
928448744,000001A0,false,Rx,0,8,0,40,EE,9,FE,FE,0,14
928455699,000001A0,false,Rx,0,8,0,40,E6,9,FE,FE,0,15
928462736,000001A0,false,Rx,0,8,0,40,EC,9,FE,FE,0,16
928469776,000001A0,false,Rx,0,8,0,40,F4,9,FE,FE,0,17
928476878,000001A0,false,Rx,0,8,0,40,FC,9,FE,FE,0,18
928483810,000001A0,false,Rx,0,8,0,40,12,0A,FE,FE,0,19
928490710,000001A0,false,Rx,0,8,0,40,FE,9,FE,FE,0,1A
928497839,000001A0,false,Rx,0,8,0,40,8,0A,FE,FE,0,1B
928504661,000001A0,false,Rx,0,8,0,40,0,0A,FE,FE,0,1C
928512968,000001A0,false,Rx,0,8,0,40,FE,9,FE,FE,0,1D
928518747,000001A0,false,Rx,0,8,0,40,4,0A,FE,FE,0,1E
928525759,000001A0,false,Rx,0,8,0,40,10,0A,FE,FE,0,1F
928532970,000001A0,false,Rx,0,8,0,40,0E,0A,FE,FE,0,10
928539769,000001A0,false,Rx,0,8,0,40,1A,0A,FE,FE,0,11
928546936,000001A0,false,Rx,0,8,0,40,18,0A,FE,FE,0,12
928553894,000001A0,false,Rx,0,8,0,40,14,0A,FE,FE,0,13
928560997,000001A0,false,Rx,0,8,0,40,18,0A,FE,FE,0,14
928567751,000001A0,false,Rx,0,8,0,40,18,0A,FE,FE,0,15
928574773,000001A0,false,Rx,0,8,0,40,1A,0A,FE,FE,0,16
928581792,000001A0,false,Rx,0,8,0,40,2C,0A,FE,FE,0,17
928588787,000001A0,false,Rx,0,8,0,40,1A,0A,FE,FE,0,18
928595770,000001A0,false,Rx,0,8,0,40,1E,0A,FE,FE,0,19
928602816,000001A0,false,Rx,0,8,0,40,28,0A,FE,FE,0,1A
928609826,000001A0,false,Rx,0,8,0,40,22,0A,FE,FE,0,1B
928616908,000001A0,false,Rx,0,8,0,40,20,0A,FE,FE,0,1C
928623883,000001A0,false,Rx,0,8,0,40,32,0A,FE,FE,0,1D
928630876,000001A0,false,Rx,0,8,0,40,38,0A,FE,FE,0,1E
928637857,000001A0,false,Rx,0,8,0,40,28,0A,FE,FE,0,1F
928644788,000001A0,false,Rx,0,8,0,40,2C,0A,FE,FE,0,10
928653155,000001A0,false,Rx,0,8,0,40,2E,0A,FE,FE,0,11
928658840,000001A0,false,Rx,0,8,0,40,2E,0A,FE,FE,0,12
928665775,000001A0,false,Rx,0,8,0,40,38,0A,FE,FE,0,13
928673219,000001A0,false,Rx,0,8,0,40,3E,0A,FE,FE,0,14
928679850,000001A0,false,Rx,0,8,0,40,4C,0A,FE,FE,0,15
928686893,000001A0,false,Rx,0,8,0,40,38,0A,FE,FE,0,16
928693866,000001A0,false,Rx,0,8,0,40,44,0A,FE,FE,0,17
928700887,000001A0,false,Rx,0,8,0,40,4A,0A,FE,FE,0,18
928707857,000001A0,false,Rx,0,8,0,40,4A,0A,FE,FE,0,19
928714812,000001A0,false,Rx,0,8,0,40,50,0A,FE,FE,0,1A
928721933,000001A0,false,Rx,0,8,0,40,50,0A,FE,FE,0,1B
928728844,000001A0,false,Rx,0,8,0,40,56,0A,FE,FE,0,1C
928735865,000001A0,false,Rx,0,8,0,40,5C,0A,FE,FE,0,1D
928742872,000001A0,false,Rx,0,8,0,40,56,0A,FE,FE,0,1E
928749865,000001A0,false,Rx,0,8,0,40,58,0A,FE,FE,0,1F
928756870,000001A0,false,Rx,0,8,0,40,62,0A,FE,FE,0,10
928763992,000001A0,false,Rx,0,8,0,40,54,0A,FE,FE,0,11
928770886,000001A0,false,Rx,0,8,0,40,5A,0A,FE,FE,0,12
928777942,000001A0,false,Rx,0,8,0,40,66,0A,FE,FE,0,13
928784862,000001A0,false,Rx,0,8,0,40,5E,0A,FE,FE,0,14
928791849,000001A0,false,Rx,0,8,0,40,6A,0A,FE,FE,0,15
928798959,000001A0,false,Rx,0,8,0,40,62,0A,FE,FE,0,16
928805895,000001A0,false,Rx,0,8,0,40,68,0A,FE,FE,0,17
928813635,000001A0,false,Rx,0,8,0,40,76,0A,FE,FE,0,18
928820137,000001A0,false,Rx,0,8,0,40,7A,0A,FE,FE,0,19
928827169,000001A0,false,Rx,0,8,0,40,78,0A,FE,FE,0,1A
928833987,000001A0,false,Rx,0,8,0,40,84,0A,FE,FE,0,1B
928840998,000001A0,false,Rx,0,8,0,40,7E,0A,FE,FE,0,1C
928847917,000001A0,false,Rx,0,8,0,40,76,0A,FE,FE,0,1D
928854966,000001A0,false,Rx,0,8,0,40,74,0A,FE,FE,0,1E
928861962,000001A0,false,Rx,0,8,0,40,84,0A,FE,FE,0,1F
928868973,000001A0,false,Rx,0,8,0,40,94,0A,FE,FE,0,10
928875935,000001A0,false,Rx,0,8,0,40,9C,0A,FE,FE,0,11
928882960,000001A0,false,Rx,0,8,0,40,8E,0A,FE,FE,0,12
928889926,000001A0,false,Rx,0,8,0,40,8A,0A,FE,FE,0,13
928897151,000001A0,false,Rx,0,8,0,40,94,0A,FE,FE,0,14
928903993,000001A0,false,Rx,0,8,0,40,9E,0A,FE,FE,0,15
928910906,000001A0,false,Rx,0,8,0,40,96,0A,FE,FE,0,16
928918088,000001A0,false,Rx,0,8,0,40,98,0A,FE,FE,0,17
928924979,000001A0,false,Rx,0,8,0,40,94,0A,FE,FE,0,18
928931942,000001A0,false,Rx,0,8,0,40,A2,0A,FE,FE,0,19
928939025,000001A0,false,Rx,0,8,0,40,9E,0A,FE,FE,0,1A
928945931,000001A0,false,Rx,0,8,0,40,A6,0A,FE,FE,0,1B
928953729,000001A0,false,Rx,0,8,0,40,9C,0A,FE,FE,0,1C
928960024,000001A0,false,Rx,0,8,0,40,B2,0A,FE,FE,0,1D
928967117,000001A0,false,Rx,0,8,0,40,C4,0A,FE,FE,0,1E
928974085,000001A0,false,Rx,0,8,0,40,C2,0A,FE,FE,0,1F
928981018,000001A0,false,Rx,0,8,0,40,BC,0A,FE,FE,0,10
928987970,000001A0,false,Rx,0,8,0,40,B4,0A,FE,FE,0,11
928994972,000001A0,false,Rx,0,8,0,40,AA,0A,FE,FE,0,12
929002093,000001A0,false,Rx,0,8,0,40,AA,0A,FE,FE,0,13
929009004,000001A0,false,Rx,0,8,0,40,C2,0A,FE,FE,0,14
929016052,000001A0,false,Rx,0,8,0,40,BE,0A,FE,FE,0,15
929023114,000001A0,false,Rx,0,8,0,40,C8,0A,FE,FE,0,16
929030048,000001A0,false,Rx,0,8,0,40,CE,0A,FE,FE,0,17
929037091,000001A0,false,Rx,0,8,0,40,D6,0A,FE,FE,0,18
929044106,000001A0,false,Rx,0,8,0,40,B8,0A,FE,FE,0,19
929051049,000001A0,false,Rx,0,8,0,40,C0,0A,FE,FE,0,1A
929058124,000001A0,false,Rx,0,8,0,40,BE,0A,FE,FE,0,1B
929065020,000001A0,false,Rx,0,8,0,40,C2,0A,FE,FE,0,1C
929072077,000001A0,false,Rx,0,8,0,40,D8,0A,FE,FE,0,1D
929079110,000001A0,false,Rx,0,8,0,40,CE,0A,FE,FE,0,1E
929085975,000001A0,false,Rx,0,8,0,40,C6,0A,FE,FE,0,1F
929094100,000001A0,false,Rx,0,8,0,40,DC,0A,FE,FE,0,10
929100133,000001A0,false,Rx,0,8,0,40,DA,0A,FE,FE,0,11
929107100,000001A0,false,Rx,0,8,0,40,DA,0A,FE,FE,0,12
929114148,000001A0,false,Rx,0,8,0,40,E0,0A,FE,FE,0,13
929121149,000001A0,false,Rx,0,8,0,40,DC,0A,FE,FE,0,14
929128041,000001A0,false,Rx,0,8,0,40,E2,0A,FE,FE,0,15
929135118,000001A0,false,Rx,0,8,0,40,D4,0A,FE,FE,0,16
929142146,000001A0,false,Rx,0,8,0,40,D8,0A,FE,FE,0,17
929149085,000001A0,false,Rx,0,8,0,40,E4,0A,FE,FE,0,18
929156084,000001A0,false,Rx,0,8,0,40,EE,0A,FE,FE,0,19
929163264,000001A0,false,Rx,0,8,0,40,EA,0A,FE,FE,0,1A
929170093,000001A0,false,Rx,0,8,0,40,EC,0A,FE,FE,0,1B
929177100,000001A0,false,Rx,0,8,0,40,EA,0A,FE,FE,0,1C
929184123,000001A0,false,Rx,0,8,0,40,E0,0A,FE,FE,0,1D
929191196,000001A0,false,Rx,0,8,0,40,DA,0A,FE,FE,0,1E
929198174,000001A0,false,Rx,0,8,0,40,DE,0A,FE,FE,0,1F
929205074,000001A0,false,Rx,0,8,0,40,E6,0A,FE,FE,0,10
929212141,000001A0,false,Rx,0,8,0,40,EA,0A,FE,FE,0,11
929219349,000001A0,false,Rx,0,8,0,40,EE,0A,FE,FE,0,12
929226123,000001A0,false,Rx,0,8,0,40,D8,0A,FE,FE,0,13
929234432,000001A0,false,Rx,0,8,0,40,E2,0A,FE,FE,0,14
929240186,000001A0,false,Rx,0,8,0,40,E4,0A,FE,FE,0,15
929247146,000001A0,false,Rx,0,8,0,40,DC,0A,FE,FE,0,16
929254495,000001A0,false,Rx,0,8,0,40,D2,0A,FE,FE,0,17
929261209,000001A0,false,Rx,0,8,0,40,C0,0A,FE,FE,0,18
929268172,000001A0,false,Rx,0,8,0,40,BA,0A,FE,FE,0,19
929275248,000001A0,false,Rx,0,8,0,40,C0,0A,FE,FE,0,1A
929282220,000001A0,false,Rx,0,8,0,40,A8,0A,FE,FE,0,1B
929289143,000001A0,false,Rx,0,8,0,40,BA,0A,FE,FE,0,1C
929296135,000001A0,false,Rx,0,8,0,40,D8,0A,FE,FE,0,1D
929303395,000001A0,false,Rx,0,8,0,40,DE,0A,FE,FE,0,1E
929310184,000001A0,false,Rx,0,8,0,40,DE,0A,FE,FE,0,1F
929317156,000001A0,false,Rx,0,8,0,40,C8,0A,FE,FE,0,10
929324283,000001A0,false,Rx,0,8,0,40,CA,0A,FE,FE,0,11
929331197,000001A0,false,Rx,0,8,0,40,C8,0A,FE,FE,0,12
929338241,000001A0,false,Rx,0,8,0,40,C6,0A,FE,FE,0,13
929345170,000001A0,false,Rx,0,8,0,40,DE,0A,FE,FE,0,14
929352170,000001A0,false,Rx,0,8,0,40,E8,0A,FE,FE,0,15
929359253,000001A0,false,Rx,0,8,0,40,D4,0A,FE,FE,0,16
929366198,000001A0,false,Rx,0,8,0,40,DA,0A,FE,FE,0,17
929374712,000001A0,false,Rx,0,8,0,40,C4,0A,FE,FE,0,18
929380232,000001A0,false,Rx,0,8,0,40,BC,0A,FE,FE,0,19
929387174,000001A0,false,Rx,0,8,0,40,AE,0A,FE,FE,0,1A
929394841,000001A0,false,Rx,0,8,0,40,BA,0A,FE,FE,0,1B
929401248,000001A0,false,Rx,0,8,0,40,B6,0A,FE,FE,0,1C
929408213,000001A0,false,Rx,0,8,0,40,BA,0A,FE,FE,0,1D
929415245,000001A0,false,Rx,0,8,0,40,A4,0A,FE,FE,0,1E
929422308,000001A0,false,Rx,0,8,0,40,96,0A,FE,FE,0,1F
929429232,000001A0,false,Rx,0,8,0,40,AE,0A,FE,FE,0,10
929436217,000001A0,false,Rx,0,8,0,40,B8,0A,FE,FE,0,11
929443475,000001A0,false,Rx,0,8,0,40,A4,0A,FE,FE,0,12
929450303,000001A0,false,Rx,0,8,0,40,A4,0A,FE,FE,0,13
929457199,000001A0,false,Rx,0,8,0,40,A0,0A,FE,FE,0,14
929464366,000001A0,false,Rx,0,8,0,40,9C,0A,FE,FE,0,15
929471315,000001A0,false,Rx,0,8,0,40,94,0A,FE,FE,0,16
929478328,000001A0,false,Rx,0,8,0,40,94,0A,FE,FE,0,17
929485226,000001A0,false,Rx,0,8,0,40,8C,0A,FE,FE,0,18
929492260,000001A0,false,Rx,0,8,0,40,80,0A,FE,FE,0,19
929499375,000001A0,false,Rx,0,8,0,40,88,0A,FE,FE,0,1A
929506292,000001A0,false,Rx,0,8,0,40,88,0A,FE,FE,0,1B
929513283,000001A0,false,Rx,0,8,0,40,84,0A,FE,FE,0,1C
929520388,000001A0,false,Rx,0,8,0,40,7E,0A,FE,FE,0,1D
929527328,000001A0,false,Rx,0,8,0,40,7E,0A,FE,FE,0,1E
929534978,000001A0,false,Rx,0,8,0,40,78,0A,FE,FE,0,1F
929541357,000001A0,false,Rx,0,8,0,40,78,0A,FE,FE,0,10
929548343,000001A0,false,Rx,0,8,0,40,70,0A,FE,FE,0,11
929555341,000001A0,false,Rx,0,8,0,40,80,0A,FE,FE,0,12
929562414,000001A0,false,Rx,0,8,0,40,78,0A,FE,FE,0,13
929569383,000001A0,false,Rx,0,8,0,40,88,0A,FE,FE,0,14
929576365,000001A0,false,Rx,0,8,0,40,6E,0A,FE,FE,0,15
929583447,000001A0,false,Rx,0,8,0,40,60,0A,FE,FE,0,16
929590361,000001A0,false,Rx,0,8,0,40,6A,0A,FE,FE,0,17
929597450,000001A0,false,Rx,0,8,0,40,5A,0A,FE,FE,0,18
929604269,000001A0,false,Rx,0,8,0,40,4C,0A,FE,FE,0,19
929611335,000001A0,false,Rx,0,8,0,40,52,0A,FE,FE,0,1A
929618422,000001A0,false,Rx,0,8,0,40,46,0A,FE,FE,0,1B
929625414,000001A0,false,Rx,0,8,0,40,36,0A,FE,FE,0,1C
929632368,000001A0,false,Rx,0,8,0,40,34,0A,FE,FE,0,1D
929639461,000001A0,false,Rx,0,8,0,40,30,0A,FE,FE,0,1E
929646346,000001A0,false,Rx,0,8,0,40,34,0A,FE,FE,0,1F
929653420,000001A0,false,Rx,0,8,0,40,3E,0A,FE,FE,0,10
929660412,000001A0,false,Rx,0,8,0,40,40,0A,FE,FE,0,11
929667446,000001A0,false,Rx,0,8,0,40,50,0A,FE,FE,0,12
929675266,000001A0,false,Rx,0,8,0,40,44,0A,FE,FE,0,13
929681462,000001A0,false,Rx,0,8,0,40,48,0A,FE,FE,0,14
929688422,000001A0,false,Rx,0,8,0,40,40,0A,FE,FE,0,15
929695414,000001A0,false,Rx,0,8,0,40,26,0A,FE,FE,0,16
929702473,000001A0,false,Rx,0,8,0,40,1C,0A,FE,FE,0,17
929709456,000001A0,false,Rx,0,8,0,40,1E,0A,FE,FE,0,18
929716439,000001A0,false,Rx,0,8,0,40,14,0A,FE,FE,0,19
929723496,000001A0,false,Rx,0,8,0,40,0A,0A,FE,FE,0,1A
929730374,000001A0,false,Rx,0,8,0,40,14,0A,FE,FE,0,1B
929737492,000001A0,false,Rx,0,8,0,40,18,0A,FE,FE,0,1C
929744366,000001A0,false,Rx,0,8,0,40,1C,0A,FE,FE,0,1D
929751439,000001A0,false,Rx,0,8,0,40,30,0A,FE,FE,0,1E
929758452,000001A0,false,Rx,0,8,0,40,38,0A,FE,FE,0,1F
929765343,000001A0,false,Rx,0,8,0,40,44,0A,FE,FE,0,10
929772445,000001A0,false,Rx,0,8,0,40,36,0A,FE,FE,0,11
929779543,000001A0,false,Rx,0,8,0,40,22,0A,FE,FE,0,12
929786425,000001A0,false,Rx,0,8,0,40,3E,0A,FE,FE,0,13
929793438,000001A0,false,Rx,0,8,0,40,3C,0A,FE,FE,0,14
929800576,000001A0,false,Rx,0,8,0,40,3C,0A,FE,FE,0,15
929807497,000001A0,false,Rx,0,8,0,40,42,0A,FE,FE,0,16
929815713,000001A0,false,Rx,0,8,0,40,44,0A,FE,FE,0,17
929821582,000001A0,false,Rx,0,8,0,40,44,0A,FE,FE,0,18
929828473,000001A0,false,Rx,0,8,0,40,3E,0A,FE,FE,0,19
929835651,000001A0,false,Rx,0,8,0,40,34,0A,FE,FE,0,1A
929842540,000001A0,false,Rx,0,8,0,40,40,0A,FE,FE,0,1B
929849531,000001A0,false,Rx,0,8,0,40,46,0A,FE,FE,0,1C
929856623,000001A0,false,Rx,0,8,0,40,44,0A,FE,FE,0,1D
929863543,000001A0,false,Rx,0,8,0,40,4A,0A,FE,FE,0,1E
929870467,000001A0,false,Rx,0,8,0,40,36,0A,FE,FE,0,1F
929877575,000001A0,false,Rx,0,8,0,40,36,0A,FE,FE,0,10
929884452,000001A0,false,Rx,0,8,0,40,36,0A,FE,FE,0,11
929891524,000001A0,false,Rx,0,8,0,40,30,0A,FE,FE,0,12
929898563,000001A0,false,Rx,0,8,0,40,40,0A,FE,FE,0,13
929905466,000001A0,false,Rx,0,8,0,40,4E,0A,FE,FE,0,14
929912512,000001A0,false,Rx,0,8,0,40,4C,0A,FE,FE,0,15
929919774,000001A0,false,Rx,0,8,0,40,4A,0A,FE,FE,0,16
929926514,000001A0,false,Rx,0,8,0,40,52,0A,FE,FE,0,17
929933588,000001A0,false,Rx,0,8,0,40,58,0A,FE,FE,0,18
929940557,000001A0,false,Rx,0,8,0,40,52,0A,FE,FE,0,19
929947594,000001A0,false,Rx,0,8,0,40,44,0A,FE,FE,0,1A
929955896,000001A0,false,Rx,0,8,0,40,4A,0A,FE,FE,0,1B
929961641,000001A0,false,Rx,0,8,0,40,58,0A,FE,FE,0,1C
929968533,000001A0,false,Rx,0,8,0,40,52,0A,FE,FE,0,1D
929975901,000001A0,false,Rx,0,8,0,40,48,0A,FE,FE,0,1E
929982624,000001A0,false,Rx,0,8,0,40,52,0A,FE,FE,0,1F
929989543,000001A0,false,Rx,0,8,0,40,62,0A,FE,FE,0,10
929996506,000001A0,false,Rx,0,8,0,40,74,0A,FE,FE,0,11
