Time Stamp,ID,Extended,Dir,Bus,LEN,D1,D2,D3,D4,D5,D6,D7,D8
506600,00001000,true,Rx,0,8,00,00,02,84,00,00,AE,F4,
507832,00001001,true,Rx,0,8,00,00,00,00,00,00,00,00,
1506702,00001000,true,Rx,0,8,00,00,02,85,00,00,AE,F4,
1508087,00001001,true,Rx,0,8,00,00,00,00,00,00,00,00,
2506709,00001000,true,Rx,0,8,00,00,02,86,00,00,AE,F4,
2508167,00001001,true,Rx,0,8,00,00,00,00,00,00,00,00,
3506750,00001000,true,Rx,0,8,00,00,02,87,00,00,AE,F4,
3508182,00001001,true,Rx,0,8,00,00,00,00,00,00,00,00,
4506745,00001000,true,Rx,0,8,00,00,02,88,00,00,AE,F4,
4508147,00001001,true,Rx,0,8,00,00,00,00,00,00,00,00,
5129401,000001A0,false,Rx,0,8,00,43,00,00,FE,FE,00,90,
5129609,000004A0,false,Rx,0,8,00,00,00,00,00,00,00,00,
5129780,000005A0,false,Rx,0,8,64,01,00,34,48,00,00,30,
5132049,00000320,false,Rx,0,8,02,02,00,01,00,00,00,00,
5136359,000001A0,false,Rx,0,8,00,43,00,00,FE,FE,00,91,
5143355,000001A0,false,Rx,0,8,00,43,00,00,FE,FE,00,92,
5143614,000004A0,false,Rx,0,8,00,00,00,00,00,00,00,00,
5143860,000005A0,false,Rx,0,8,64,01,00,E2,55,00,00,30,
5150433,000001A0,false,Rx,0,8,00,43,00,00,FE,FE,00,93,
5156078,00000320,false,Rx,0,8,02,02,00,01,00,00,00,00,
5157390,000001A0,false,Rx,0,8,00,43,00,00,FE,FE,00,94,
5157643,000004A0,false,Rx,0,8,00,00,00,00,00,00,00,00,
5157889,000005A0,false,Rx,0,8,64,01,00,90,63,00,00,30,
5164431,000001A0,false,Rx,0,8,00,43,00,00,FE,FE,00,95,
5171418,000001A0,false,Rx,0,8,00,43,00,00,FE,FE,00,96,
5171630,000004A0,false,Rx,0,8,00,00,00,00,00,00,00,00,
5171876,000005A0,false,Rx,0,8,64,01,00,3E,71,00,00,30,
5178340,000001A0,false,Rx,0,8,00,43,00,00,FE,FE,00,97,
5182235,00000570,false,Rx,0,4,00,00,00,00,00,00,00,00,
5183398,00000320,false,Rx,0,8,02,02,00,01,00,00,00,00,
5186799,000001A0,false,Rx,0,8,00,43,00,00,FE,FE,00,98,
5186825,000004A0,false,Rx,0,8,00,00,00,00,00,00,00,00,
5186845,000005A0,false,Rx,0,8,64,01,00,EC,7E,00,00,30,
5192426,000001A0,false,Rx,0,8,00,43,00,00,FE,FE,00,99,
5199369,000001A0,false,Rx,0,8,00,43,00,00,FE,FE,00,9A,
5199623,000004A0,false,Rx,0,8,00,00,00,00,00,00,00,00,
5199870,000005A0,false,Rx,0,8,64,01,00,9A,8C,00,00,30,
5206823,000001A0,false,Rx,0,8,00,43,00,00,FE,FE,00,9B,
5209304,00000320,false,Rx,0,8,02,02,00,01,00,00,00,00,
5209596,000005D8,false,Rx,0,8,15,04,00,03,01,00,00,00,
5209917,000005D0,false,Rx,0,6,94,47,51,30,24,41,00,00,
5213419,000001A0,false,Rx,0,8,00,43,00,00,FE,FE,00,9C,
5213646,000004A0,false,Rx,0,8,00,00,00,00,00,00,00,00,
5213919,000005A0,false,Rx,0,8,64,01,00,48,9A,00,00,30,
5220430,000001A0,false,Rx,0,8,00,43,00,00,FE,FE,00,9D,
5227609,000001A0,false,Rx,0,8,00,43,00,00,FE,FE,00,9E,
5227636,000004A0,false,Rx,0,8,00,00,00,00,00,00,00,00,
5227915,000005A0,false,Rx,0,8,64,01,00,F6,A7,00,00,30,
5232793,00000320,false,Rx,0,8,02,02,00,01,00,00,00,00,
5234410,000001A0,false,Rx,0,8,00,43,00,00,FE,FE,00,9F,
5241408,000001A0,false,Rx,0,8,00,43,00,00,FE,FE,00,90,
5241662,000004A0,false,Rx,0,8,00,00,00,00,00,00,00,00,
5241908,000005A0,false,Rx,0,8,64,01,00,A4,B5,00,00,30,
5248517,000001A0,false,Rx,0,8,00,43,00,00,FE,FE,00,91,
5255455,000001A0,false,Rx,0,8,00,43,00,00,FE,FE,00,92,
5255670,000004A0,false,Rx,0,8,00,00,00,00,00,00,00,00,
5255916,000005A0,false,Rx,0,8,64,01,00,52,C3,00,00,30,
5256465,00000320,false,Rx,0,8,02,02,00,01,00,00,00,00,
5256798,00000420,false,Rx,0,8,06,78,78,43,00,00,FF,00,
5262416,000001A0,false,Rx,0,8,00,43,00,00,FE,FE,00,93,
5269456,000001A0,false,Rx,0,8,00,43,00,00,FE,FE,00,94,
5269663,000004A0,false,Rx,0,8,00,00,00,00,00,00,00,00,
5269909,000005A0,false,Rx,0,8,64,01,00,00,D1,00,00,30,
5276444,000001A0,false,Rx,0,8,00,43,00,00,FE,FE,00,95,
5281555,00000570,false,Rx,0,4,07,00,00,00,00,00,00,00,
5282793,00000320,false,Rx,0,8,02,02,00,01,00,00,00,00,
5283507,000001A0,false,Rx,0,8,00,43,00,00,FE,FE,00,96,
5283756,000004A0,false,Rx,0,8,00,00,00,00,00,00,00,00,
5283927,000005A0,false,Rx,0,8,64,01,00,AE,DE,00,00,30,
5290505,000001A0,false,Rx,0,8,00,43,00,00,FE,FE,00,97,
5297444,000001A0,false,Rx,0,8,00,43,00,00,FE,FE,00,98,
5297702,000004A0,false,Rx,0,8,00,00,00,00,00,00,00,00,
5297948,000005A0,false,Rx,0,8,64,01,00,5C,EC,00,00,30,
5304475,000001A0,false,Rx,0,8,00,43,00,00,FE,FE,00,99,
5308066,00000320,false,Rx,0,8,02,02,00,01,00,00,00,00,
5308441,000005D8,false,Rx,0,8,15,04,00,03,01,00,00,00,
5308661,000005D0,false,Rx,0,6,80,47,51,00,24,41,00,00,
5309008,00000520,false,Rx,0,8,02,04,00,2F,80,75,34,04,
5311574,000001A0,false,Rx,0,8,00,43,00,00,FE,FE,00,9A,
5311787,000004A0,false,Rx,0,8,00,00,00,00,00,00,00,00,
5312035,000005A0,false,Rx,0,8,64,01,00,0A,FA,00,00,30,
5318511,000001A0,false,Rx,0,8,00,43,00,00,FE,FE,00,9B,
5325503,000001A0,false,Rx,0,8,00,43,00,00,FE,FE,00,9C,
5327179,000004A0,false,Rx,0,8,00,00,00,00,00,00,00,00,
5327201,000005A0,false,Rx,0,8,64,01,00,B8,07,00,00,30,
5331650,00000320,false,Rx,0,8,02,02,00,01,00,00,00,00,
5332474,000001A0,false,Rx,0,8,00,43,00,00,FE,FE,00,9D,
5339470,000001A0,false,Rx,0,8,00,43,00,00,FE,FE,00,9E,
5339724,000004A0,false,Rx,0,8,00,00,00,00,00,00,00,00,
5339970,000005A0,false,Rx,0,8,64,01,00,66,15,00,00,30,
5341965,00000050,false,Rx,0,4,00,01,10,11,00,00,00,00,
5347174,000001A0,false,Rx,0,8,00,43,00,00,FE,FE,00,9F,
5353521,000001A0,false,Rx,0,8,00,43,00,00,FE,FE,00,90,
5353729,000004A0,false,Rx,0,8,00,00,00,00,00,00,00,00,
5353975,000005A0,false,Rx,0,8,64,01,00,14,23,00,00,30,
5356579,00000320,false,Rx,0,8,02,02,00,01,00,00,00,00,
5360542,000001A0,false,Rx,0,8,00,43,00,00,FE,FE,00,91,
5361931,00000050,false,Rx,0,4,00,01,20,21,00,00,00,00,
5367633,000001A0,false,Rx,0,8,00,43,00,00,FE,FE,00,92,
5367867,000004A0,false,Rx,0,8,00,00,00,00,00,00,00,00,
5368091,000005A0,false,Rx,0,8,64,01,00,C2,30,00,00,30,
5374508,000001A0,false,Rx,0,8,00,43,00,00,FE,FE,00,93,
5380752,00000570,false,Rx,0,4,07,00,00,00,00,00,00,00,
5381537,000001A0,false,Rx,0,8,00,43,00,00,FE,FE,00,94,
5381713,000004A0,false,Rx,0,8,00,00,00,00,00,00,00,00,
5381960,00000320,false,Rx,0,8,02,02,00,01,00,00,00,00,
5382133,00000050,false,Rx,0,4,00,01,30,31,00,00,00,00,
5382384,000005A0,false,Rx,0,8,64,01,00,70,3E,00,00,30,
5388618,000001A0,false,Rx,0,8,00,43,00,00,FE,FE,00,95,
5391991,00000588,false,Rx,0,8,E0,00,00,00,00,00,00,00,
5395527,000001A0,false,Rx,0,8,00,43,00,00,FE,FE,00,96,
5395778,000004A0,false,Rx,0,8,00,00,00,00,00,00,00,00,
5396028,000005A0,false,Rx,0,8,64,01,00,1E,4C,00,00,30,
5397948,00000288,false,Rx,0,8,0C,52,10,00,00,56,00,00,
5398202,00000380,false,Rx,0,8,00,4D,00,00,00,00,00,00,
5401943,00000480,false,Rx,0,8,19,20,00,00,00,FF,00,C6,
5402122,00000050,false,Rx,0,4,00,01,40,41,00,00,00,00,
5402606,000001A0,false,Rx,0,8,00,43,00,00,FE,FE,00,97,
5407977,00000320,false,Rx,0,8,02,06,00,01,00,00,00,00,
5408164,00000280,false,Rx,0,8,01,00,00,00,00,00,2C,00,
5408410,00000488,false,Rx,0,8,C9,00,00,7F,A6,00,00,10,
5408664,000005D8,false,Rx,0,8,15,04,00,03,01,00,00,00,
5408910,000005D0,false,Rx,0,6,80,47,51,30,24,41,00,00,
5409622,000001A0,false,Rx,0,8,00,43,00,00,FE,FE,00,98,
5409877,000004A0,false,Rx,0,8,00,00,00,00,00,00,00,00,
5410246,000005A0,false,Rx,0,8,64,01,00,CC,59,00,00,30,
5412025,00000588,false,Rx,0,8,E5,00,7F,00,31,00,00,00,
5416542,000001A0,false,Rx,0,8,00,43,00,00,FE,FE,00,99,
5417930,00000288,false,Rx,0,8,0C,52,00,00,00,00,00,00,
5418254,00000380,false,Rx,0,8,00,4D,00,00,00,00,00,00,
5421946,00000480,false,Rx,0,8,19,22,00,00,19,06,00,24,
5422134,00000050,false,Rx,0,4,00,01,50,51,00,00,00,00,
5423603,000001A0,false,Rx,0,8,00,43,00,00,FE,FE,00,9A,
5423854,000004A0,false,Rx,0,8,00,00,00,00,00,00,00,00,
5424105,000005A0,false,Rx,0,8,64,01,00,7A,67,00,00,30,
5428080,00000280,false,Rx,0,8,01,00,00,00,00,00,2C,00,
5428341,00000488,false,Rx,0,8,F9,00,00,7F,A6,00,00,20,
5430612,000001A0,false,Rx,0,8,00,43,00,00,FE,FE,00,9B,
5431926,00000588,false,Rx,0,8,ED,00,7F,00,4A,00,00,00,
5432939,00000320,false,Rx,0,8,02,06,00,01,00,00,00,00,
5437590,000001A0,false,Rx,0,8,00,43,00,00,FE,FE,00,9C,
5437838,000004A0,false,Rx,0,8,00,00,00,00,00,00,00,00,
5438091,00000288,false,Rx,0,8,0C,52,00,00,00,56,00,00,
5438339,00000380,false,Rx,0,8,00,4D,00,08,00,00,00,00,
5438518,000005A0,false,Rx,0,8,64,01,00,28,75,00,00,30,
5441948,00000480,false,Rx,0,8,19,22,00,00,19,06,00,24,
5442129,00000050,false,Rx,0,4,00,01,60,61,00,00,00,00,
5444660,000001A0,false,Rx,0,8,00,43,00,00,FE,FE,00,9D,
5448004,00000280,false,Rx,0,8,01,74,00,00,74,00,2C,00,
5448190,00000488,false,Rx,0,8,E9,00,00,7F,A6,00,00,30,
5451640,000001A0,false,Rx,0,8,00,43,00,00,FE,FE,00,9E,
5451888,000004A0,false,Rx,0,8,00,00,00,00,00,00,00,00,
5452138,00000588,false,Rx,0,8,E9,01,7F,00,57,00,00,00,
5452390,000005A0,false,Rx,0,8,64,01,00,D6,82,00,00,30,
5457415,00000320,false,Rx,0,8,82,06,00,01,00,00,00,00,
5457748,00000420,false,Rx,0,8,06,78,78,43,00,00,FF,00,
5457996,00000288,false,Rx,0,8,75,52,00,00,00,56,00,00,
5458249,00000380,false,Rx,0,8,00,4D,00,08,00,00,00,00,
5458578,000001A0,false,Rx,0,8,00,43,00,00,FE,FE,00,9F,
5461932,00000480,false,Rx,0,8,53,22,00,00,19,06,00,6E,
5462107,00000050,false,Rx,0,4,00,01,70,71,00,00,00,00,
5465695,000001A0,false,Rx,0,8,00,43,00,00,FE,FE,00,90,
5467527,000004A0,false,Rx,0,8,00,00,00,00,00,00,00,00,
5467551,000005A0,false,Rx,0,8,64,01,00,84,90,00,00,30,
5467968,00000280,false,Rx,0,8,01,74,00,00,74,00,2C,00,
5468221,00000488,false,Rx,0,8,99,00,00,7F,A6,00,00,40,
5472028,00000588,false,Rx,0,8,E9,01,7F,00,5D,00,00,00,
5472679,000001A0,false,Rx,0,8,00,43,00,00,FE,FE,00,91,
5473915,00000010,false,Rx,0,6,6C,91,B7,9B,58,DF,00,00,
5477954,00000288,false,Rx,0,8,75,52,00,00,00,56,00,00,
5478210,00000380,false,Rx,0,8,00,4D,00,08,00,00,00,00,
5479607,000001A0,false,Rx,0,8,00,43,00,00,FE,FE,00,92,
5479854,000004A0,false,Rx,0,8,00,00,00,00,00,00,00,00,
5480109,000005A0,false,Rx,0,8,64,01,00,32,9E,00,00,30,
5481419,00000570,false,Rx,0,4,07,00,00,00,00,00,00,00,
5481974,00000480,false,Rx,0,8,53,22,00,00,19,06,00,6E,
5482153,00000050,false,Rx,0,4,00,01,80,81,00,00,00,00,
5482707,00000320,false,Rx,0,8,82,06,00,01,00,00,00,00,
5487472,000001A0,false,Rx,0,8,00,43,00,00,FE,FE,00,93,
5487962,00000280,false,Rx,0,8,01,74,00,00,74,00,2C,00,
5488217,00000488,false,Rx,0,8,89,00,00,7F,A6,00,00,50,
5491958,00000588,false,Rx,0,8,E9,01,7F,00,60,00,00,00,
5493697,000001A0,false,Rx,0,8,00,43,00,00,FE,FE,00,94,
5493945,000004A0,false,Rx,0,8,00,00,00,00,00,00,00,00,
5494124,000005A0,false,Rx,0,8,64,01,00,E0,AB,00,00,30,
5497940,00000288,false,Rx,0,8,75,52,00,00,00,56,00,00,
5498194,00000380,false,Rx,0,8,00,4D,00,08,00,00,00,00,
5500648,000001A0,false,Rx,0,8,00,43,00,00,FE,FE,00,95,
5501959,00000480,false,Rx,0,8,53,22,00,00,19,06,00,6E,
5502138,00000050,false,Rx,0,4,00,01,90,91,00,00,00,00,
5503149,00000011,false,Rx,0,6,7C,82,CB,08,36,B8,00,00,
5508375,00001000,true,Rx,0,8,00,00,02,89,00,00,AF,AD,
5509937,00001001,true,Rx,0,8,00,00,00,00,00,00,00,00,
5511352,000001A0,false,Rx,0,8,00,43,00,00,FE,FE,00,96,
5511374,000004A0,false,Rx,0,8,00,00,00,00,00,00,00,00,
5511390,00000280,false,Rx,0,8,01,74,00,00,74,00,2C,00,
5511410,00000488,false,Rx,0,8,B9,00,00,7F,A6,00,00,60,
5511427,000005A0,false,Rx,0,8,64,01,00,8E,B9,00,00,30,
5511444,00000320,false,Rx,0,8,82,06,00,01,00,00,00,00,
5511461,000005D8,false,Rx,0,8,15,04,00,03,01,00,00,00,
5511479,000005D0,false,Rx,0,6,80,47,51,30,24,41,00,00,
5511508,00000520,false,Rx,0,8,51,67,01,2F,80,75,34,04,
5512005,00000588,false,Rx,0,8,E9,02,7F,00,62,00,00,00,
5514855,000001A0,false,Rx,0,8,00,43,00,00,FE,FE,00,97,
5517963,00000288,false,Rx,0,8,75,52,00,00,00,56,00,00,
5518220,00000380,false,Rx,0,8,00,4D,00,08,00,00,00,00,
5521651,000001A0,false,Rx,0,8,00,43,00,00,FE,FE,00,98,
5521851,000004A0,false,Rx,0,8,00,00,00,00,00,00,00,00,
5522105,00000480,false,Rx,0,8,53,22,00,00,19,06,00,6E,
5522281,00000050,false,Rx,0,4,00,01,A0,A1,00,00,00,00,
5522534,000005A0,false,Rx,0,8,64,01,00,3C,C7,00,00,30,
5528012,00000280,false,Rx,0,8,01,74,00,00,74,00,2C,00,
5528199,00000488,false,Rx,0,8,56,00,00,80,A6,00,00,70,
5528753,000001A0,false,Rx,0,8,00,43,00,00,FE,FE,00,99,
5531935,00000588,false,Rx,0,8,E9,02,80,00,63,00,00,00,
5532417,00000320,false,Rx,0,8,82,06,00,01,00,00,00,00,
5535708,000001A0,false,Rx,0,8,00,43,00,00,FE,FE,00,9A,
5535955,000004A0,false,Rx,0,8,00,00,00,00,00,00,00,00,
5536210,000005A0,false,Rx,0,8,64,01,00,EA,D4,00,00,30,
5537981,00000288,false,Rx,0,8,8F,52,00,00,00,56,00,00,
5538229,00000380,false,Rx,0,8,00,4D,00,08,00,00,00,00,
5541965,00000480,false,Rx,0,8,A4,22,00,00,19,06,00,99,
5542144,00000050,false,Rx,0,4,00,01,B0,B1,00,00,00,00,
5542698,000001A0,false,Rx,0,8,00,43,00,00,FE,FE,00,9B,
5548054,00000280,false,Rx,0,8,01,74,00,00,74,00,2C,00,
5548229,00000488,false,Rx,0,8,A6,00,00,80,A6,00,00,80,
5549806,000001A0,false,Rx,0,8,00,43,00,00,FE,FE,00,9C,
5550021,000004A0,false,Rx,0,8,00,00,00,00,00,00,00,00,
5550195,000005A0,false,Rx,0,8,64,01,00,98,E2,00,00,30,
5551965,00000588,false,Rx,0,8,E9,02,80,00,63,00,00,00,
5556617,000001A0,false,Rx,0,8,00,43,00,00,FE,FE,00,9D,
5556867,00000320,false,Rx,0,8,82,06,00,01,00,00,00,00,
5557949,00000288,false,Rx,0,8,8F,52,00,00,00,56,00,00,
5558204,00000380,false,Rx,0,8,00,4D,00,08,00,00,00,00,
5561943,00000480,false,Rx,0,8,A4,22,00,00,19,06,00,99,
5562123,00000050,false,Rx,0,4,00,01,C0,C1,00,00,00,00,
5563741,000001A0,false,Rx,0,8,00,43,00,00,FE,FE,00,9E,
5563991,000004A0,false,Rx,0,8,00,00,00,00,00,00,00,00,
5564240,000005A0,false,Rx,0,8,64,01,00,46,F0,00,00,30,
5568023,00000280,false,Rx,0,8,01,74,00,00,74,00,2C,00,
5568216,00000488,false,Rx,0,8,49,00,00,7F,A6,00,00,90,
5570719,000001A0,false,Rx,0,8,00,43,00,00,FE,FE,00,9F,
5571971,00000588,false,Rx,0,8,E9,02,7F,00,63,00,00,00,
5577602,000001A0,false,Rx,0,8,00,43,00,00,FE,FE,00,90,
5577848,000004A0,false,Rx,0,8,00,00,00,00,00,00,00,00,
5578103,00000288,false,Rx,0,8,8F,52,00,00,00,56,00,00,
5578349,00000380,false,Rx,0,8,00,4D,00,08,00,00,00,00,
5578603,000005A0,false,Rx,0,8,64,01,00,F4,FD,00,00,30,
5581846,00000570,false,Rx,0,4,07,00,00,00,00,00,00,00,
5582019,00000480,false,Rx,0,8,A4,22,00,00,19,06,00,99,
5582197,00000050,false,Rx,0,4,00,01,D0,D1,00,00,00,00,
5583051,00000320,false,Rx,0,8,82,06,00,01,00,00,00,00,
5584747,000001A0,false,Rx,0,8,00,43,00,00,FE,FE,00,91,
5587963,00000280,false,Rx,0,8,01,74,00,00,74,00,2C,00,
5588150,00000488,false,Rx,0,8,86,00,00,80,A6,00,00,A0,
5591737,000001A0,false,Rx,0,8,00,43,00,00,FE,FE,00,92,
5591983,000004A0,false,Rx,0,8,00,00,00,00,00,00,00,00,
5592240,00000588,false,Rx,0,8,E9,02,80,00,63,00,00,00,
5592493,000005A0,false,Rx,0,8,64,01,00,A2,0B,00,00,30,
5597971,00000288,false,Rx,0,8,8F,52,00,00,00,56,00,00,
5598224,00000380,false,Rx,0,8,00,4D,00,08,00,00,00,00,
5598703,000001A0,false,Rx,0,8,00,43,00,00,FE,FE,00,93,
5601913,00000480,false,Rx,0,8,A4,22,00,00,19,06,00,99,
5602167,00000050,false,Rx,0,4,00,01,E0,E1,00,00,00,00,
5605810,000001A0,false,Rx,0,8,00,43,00,00,FE,FE,00,94,
5606094,000004A0,false,Rx,0,8,00,00,00,00,00,00,00,00,
5606235,000005A0,false,Rx,0,8,64,01,00,50,19,00,00,30,
5607903,00000320,false,Rx,0,8,82,06,00,01,00,00,00,00,
5608021,00000280,false,Rx,0,8,01,74,00,00,74,00,2C,00,
5608276,00000488,false,Rx,0,8,69,00,00,7F,A6,00,00,B0,
5608529,000005D8,false,Rx,0,8,15,04,00,03,01,00,00,00,
5608775,000005D0,false,Rx,0,6,80,47,51,30,24,41,00,00,
5611981,00000588,false,Rx,0,8,E9,03,7F,00,63,00,00,00,
5612769,000001A0,false,Rx,0,8,00,43,00,00,FE,FE,00,95,
5617948,00000288,false,Rx,0,8,DE,52,00,00,00,56,00,00,
5618201,00000380,false,Rx,0,8,00,4D,00,08,00,00,00,00,
5619670,000001A0,false,Rx,0,8,00,43,00,00,FE,FE,00,96,
5619916,000004A0,false,Rx,0,8,00,00,00,00,00,00,00,00,
5620169,000005A0,false,Rx,0,8,64,01,00,FE,26,00,00,30,
5621939,00000480,false,Rx,0,8,ED,22,00,00,19,06,00,D0,
5622195,00000050,false,Rx,0,4,00,01,F0,F1,00,00,00,00,
5628024,000001A0,false,Rx,0,8,00,43,00,00,FE,FE,00,97,
5628046,00000280,false,Rx,0,8,01,74,00,00,74,00,2C,00,
5628147,00000488,false,Rx,0,8,19,00,00,7F,A6,00,00,C0,
5631963,00000588,false,Rx,0,8,E9,03,7F,00,63,00,00,00,
5632402,00000320,false,Rx,0,8,82,06,00,01,00,00,00,00,
5633791,000001A0,false,Rx,0,8,00,43,00,00,FE,FE,00,98,
5634069,000004A0,false,Rx,0,8,00,00,00,00,00,00,00,00,
5634245,000005A0,false,Rx,0,8,64,01,00,AC,34,00,00,30,
5637980,00000288,false,Rx,0,8,DE,52,00,00,00,56,00,00,
5638231,00000380,false,Rx,0,8,00,4D,00,08,00,00,00,00,
5640681,000001A0,false,Rx,0,8,00,43,00,00,FE,FE,00,99,
5641996,00000480,false,Rx,0,8,ED,22,00,00,19,06,00,D0,
5642246,00000050,false,Rx,0,4,00,01,00,01,00,00,00,00,
5648007,000001A0,false,Rx,0,8,00,43,00,00,FE,FE,00,9A,
5648031,00000280,false,Rx,0,8,01,73,00,00,73,00,2C,00,
5648212,00000488,false,Rx,0,8,09,00,00,7F,A6,00,00,D0,
5648458,000004A0,false,Rx,0,8,00,00,00,00,00,00,00,00,
5648712,000005A0,false,Rx,0,8,64,01,00,5A,42,00,00,30,
5651920,00000588,false,Rx,0,8,E9,03,7F,00,63,00,00,00,
5654752,000001A0,false,Rx,0,8,00,43,00,00,FE,FE,00,9B,
5657029,00000320,false,Rx,0,8,82,06,00,01,00,00,00,00,
5657509,00000420,false,Rx,0,8,06,78,78,43,00,00,FF,00,
5657939,00000288,false,Rx,0,8,DE,52,00,00,00,56,00,00,
5658242,00000380,false,Rx,0,8,00,4D,00,08,00,00,00,00,
5661760,000001A0,false,Rx,0,8,00,43,00,00,FE,FE,00,9C,
5662013,00000480,false,Rx,0,8,ED,22,00,00,19,06,00,D0,
5662262,000004A0,false,Rx,0,8,00,00,00,00,00,00,00,00,
5662437,00000050,false,Rx,0,4,00,01,10,11,00,00,00,00,
5662615,000005A0,false,Rx,0,8,64,01,00,08,50,00,00,30,
5668095,00000280,false,Rx,0,8,01,73,00,00,73,00,2C,00,
5668230,00000488,false,Rx,0,8,C6,00,00,80,A6,00,00,E0,
5668859,000001A0,false,Rx,0,8,00,43,00,00,FE,FE,00,9D,
5671997,00000588,false,Rx,0,8,E9,03,80,00,63,00,00,00,
5675662,000001A0,false,Rx,0,8,00,43,00,00,FE,FE,00,9E,
5675983,000004A0,false,Rx,0,8,00,00,00,00,00,00,00,00,
5676165,000005A0,false,Rx,0,8,64,01,00,B6,5D,00,00,30,
5677936,00000288,false,Rx,0,8,DE,52,00,00,00,56,00,00,
5678190,00000380,false,Rx,0,8,00,4D,00,08,00,00,00,00,
5681778,00000570,false,Rx,0,4,07,00,DE,00,00,00,00,00,
5682026,00000480,false,Rx,0,8,ED,22,00,00,19,06,00,D0,
5682278,00000050,false,Rx,0,4,00,01,20,21,00,00,00,00,
5682757,000001A0,false,Rx,0,8,00,43,00,00,FE,FE,00,9F,
5683161,00000320,false,Rx,0,8,82,06,00,01,00,00,00,00,
5688088,00000280,false,Rx,0,8,01,73,00,00,73,00,2C,00,
5688206,00000488,false,Rx,0,8,29,00,00,7F,A6,00,00,F0,
5689848,000001A0,false,Rx,0,8,00,43,00,00,FE,FE,00,90,
5690133,000004A0,false,Rx,0,8,00,00,00,00,00,00,00,00,
5690309,000005A0,false,Rx,0,8,64,01,00,64,6B,00,00,30,
5691922,00000588,false,Rx,0,8,E9,03,7F,00,63,00,00,00,
5696723,000001A0,false,Rx,0,8,00,43,00,00,FE,FE,00,91,
5697960,00000288,false,Rx,0,8,0C,52,00,00,00,56,00,00,
5698214,00000380,false,Rx,0,8,00,4D,00,08,00,00,00,00,
5701957,00000480,false,Rx,0,8,19,22,00,00,19,06,00,24,
5702287,00000050,false,Rx,0,4,00,01,30,31,00,00,00,00,
5703833,000001A0,false,Rx,0,8,00,43,00,00,FE,FE,00,92,
5704088,000004A0,false,Rx,0,8,00,00,00,00,00,00,00,00,
5704264,000005A0,false,Rx,0,8,64,01,00,12,79,00,00,30,
5708123,00000320,false,Rx,0,8,82,06,00,01,00,00,00,00,
5708147,00000280,false,Rx,0,8,01,73,00,00,73,00,2C,00,
5708328,00000488,false,Rx,0,8,D9,00,00,7F,A6,00,00,00,
5708586,000005D8,false,Rx,0,8,15,04,00,03,01,00,00,00,
5708832,000005D0,false,Rx,0,6,80,47,51,30,24,41,00,00,
5709156,00000520,false,Rx,0,8,0C,88,01,2F,80,75,34,04,
5710851,000001A0,false,Rx,0,8,00,43,00,00,FE,FE,00,13,
5711937,00000588,false,Rx,0,8,E9,04,7F,00,63,00,00,00,
5717723,000001A0,false,Rx,0,8,00,43,00,00,FE,FE,00,14,
5717974,00000288,false,Rx,0,8,0C,52,00,00,00,56,00,00,
5718224,00000380,false,Rx,0,8,00,4D,00,08,00,00,00,00,
5718475,000004A0,false,Rx,0,8,00,00,00,00,00,00,00,00,
5718729,000005A0,false,Rx,0,8,64,01,00,C0,86,00,00,30,
5721930,00000480,false,Rx,0,8,19,22,00,00,19,06,00,24,
5722257,00000050,false,Rx,0,4,00,01,40,41,00,00,00,00,
5724783,000001A0,false,Rx,0,8,00,43,00,00,FE,FE,00,15,
5728100,00000280,false,Rx,0,8,01,73,00,00,73,00,2C,00,
5728206,00000488,false,Rx,0,8,C9,00,00,7F,A6,00,00,10,
5731798,000001A0,false,Rx,0,8,00,43,00,00,FE,FE,00,16,
5732121,000004A0,false,Rx,0,8,00,00,00,00,00,00,00,00,
5732298,00000588,false,Rx,0,8,E9,04,7F,00,63,00,00,00,
5732551,000005A0,false,Rx,0,8,64,01,00,6E,94,00,00,30,
5732797,00000320,false,Rx,0,8,82,06,00,01,00,00,00,00,
5737963,00000288,false,Rx,0,8,0C,52,00,00,00,56,00,00,
5738166,00000380,false,Rx,0,8,00,4D,00,08,00,00,00,00,
5738795,000001A0,false,Rx,0,8,00,43,00,00,FE,FE,00,17,
5741922,00000480,false,Rx,0,8,19,22,00,00,19,06,00,24,
5742320,00000050,false,Rx,0,4,00,01,50,51,00,00,00,00,
5745756,000001A0,false,Rx,0,8,00,43,00,00,FE,FE,00,18,
5746079,000004A0,false,Rx,0,8,00,00,00,00,00,00,00,00,
5746256,000005A0,false,Rx,0,8,64,01,00,1C,A2,00,00,30,
5748236,00000280,false,Rx,0,8,01,73,00,00,73,00,2C,00,
5748263,00000488,false,Rx,0,8,F9,00,00,7F,A6,00,00,20,
5751908,00000588,false,Rx,0,8,E9,04,7F,00,63,00,00,00,
5752848,000001A0,false,Rx,0,8,00,43,00,00,FE,FE,00,19,
5757265,00000320,false,Rx,0,8,82,06,00,01,00,00,00,00,
5757971,00000288,false,Rx,0,8,0C,52,00,00,00,56,00,00,
5758223,00000380,false,Rx,0,8,00,4D,00,08,00,00,00,00,
5759840,000001A0,false,Rx,0,8,00,43,00,00,FE,FE,00,1A,
5760096,000004A0,false,Rx,0,8,00,00,00,00,00,00,00,00,
5760269,000005A0,false,Rx,0,8,64,01,00,CA,AF,00,00,30,
5761963,00000480,false,Rx,0,8,19,22,00,00,19,06,00,24,
5762367,00000050,false,Rx,0,4,00,01,60,61,00,00,00,00,
5768277,000001A0,false,Rx,0,8,00,43,00,00,FE,FE,00,1B,
5768308,00000280,false,Rx,0,8,01,73,00,00,73,00,2C,00,
5768325,00000488,false,Rx,0,8,16,00,00,80,A6,00,00,30,
5772004,00000588,false,Rx,0,8,E9,04,80,00,63,00,00,00,
5773880,000001A0,false,Rx,0,8,00,43,00,00,FE,FE,00,1C,
5774135,000004A0,false,Rx,0,8,00,00,00,00,00,00,00,00,
5774309,000005A0,false,Rx,0,8,64,01,00,78,BD,00,00,30,
5777970,00000288,false,Rx,0,8,75,52,00,00,00,56,00,00,
5778219,00000380,false,Rx,0,8,00,4D,00,08,00,00,00,00,
5780746,000001A0,false,Rx,0,8,00,43,00,00,FE,FE,00,1D,
5781452,00000570,false,Rx,0,4,07,00,DE,00,00,00,00,00,
5781934,00000480,false,Rx,0,8,53,22,00,00,19,06,00,6E,
5782412,00000050,false,Rx,0,4,00,01,70,71,00,00,00,00,
5782819,00000320,false,Rx,0,8,82,06,00,01,00,00,00,00,
5788344,000001A0,false,Rx,0,8,00,43,00,00,FE,FE,00,1E,
5788368,00000280,false,Rx,0,8,01,73,00,00,73,00,2C,00,
5788384,00000488,false,Rx,0,8,99,00,00,7F,A6,00,00,40,
5788579,000004A0,false,Rx,0,8,00,00,00,00,00,00,00,00,
5788825,000005A0,false,Rx,0,8,64,01,00,26,CB,00,00,30,
5791986,00000588,false,Rx,0,8,E9,04,7F,00,63,00,00,00,
5794831,000001A0,false,Rx,0,8,00,43,00,00,FE,FE,00,1F,
5797963,00000288,false,Rx,0,8,75,52,00,00,00,56,00,00,
5798216,00000380,false,Rx,0,8,00,4D,00,08,00,00,00,00,
5801798,000001A0,false,Rx,0,8,00,43,00,00,FE,FE,00,10,
5802054,00000480,false,Rx,0,8,53,22,00,00,19,06,00,6E,
5802304,000004A0,false,Rx,0,8,00,00,00,00,00,00,00,00,
5802475,00000050,false,Rx,0,4,00,01,80,81,00,00,00,00,
5802729,000005A0,false,Rx,0,8,64,01,00,D4,D8,00,00,30,
5808446,00000320,false,Rx,0,8,82,06,00,01,00,00,00,00,
5808473,00000280,false,Rx,0,8,01,73,00,00,73,00,2C,00,
5808500,00000488,false,Rx,0,8,76,00,00,80,A6,00,00,50,
5808664,000005D8,false,Rx,0,8,15,04,00,03,01,00,00,00,
5808914,000001A0,false,Rx,0,8,00,43,00,00,FE,FE,00,11,
5809089,000005D0,false,Rx,0,6,80,47,51,30,24,41,00,00,
5812027,00000588,false,Rx,0,8,E9,04,80,00,63,00,00,00,
5815873,000001A0,false,Rx,0,8,00,43,00,00,FE,FE,00,12,
5816127,000004A0,false,Rx,0,8,00,00,00,00,00,00,00,00,
5816379,000005A0,false,Rx,0,8,64,01,00,82,E6,00,00,30,
5817920,00000288,false,Rx,0,8,75,52,00,00,00,56,00,00,
5818173,00000380,false,Rx,0,8,00,4D,00,08,00,00,00,00,
5821906,00000480,false,Rx,0,8,53,22,00,00,19,06,00,6E,
5822388,00000050,false,Rx,0,4,00,01,90,91,00,00,00,00,
5822871,000001A0,false,Rx,0,8,00,43,00,00,FE,FE,00,13,
5828502,00000280,false,Rx,0,8,01,73,00,00,73,00,2C,00,
5828532,00000488,false,Rx,0,8,B9,00,00,7F,A6,00,00,60,
5829938,000001A0,false,Rx,0,8,00,43,00,00,FE,FE,00,14,
5830198,000004A0,false,Rx,0,8,00,00,00,00,00,00,00,00,
5830370,000005A0,false,Rx,0,8,64,01,00,30,F4,00,00,30,
5831915,00000588,false,Rx,0,8,E9,05,7F,00,63,00,00,00,
5832658,00000320,false,Rx,0,8,82,06,00,01,00,00,00,00,
5836820,000001A0,false,Rx,0,8,00,43,00,00,FE,FE,00,15,
5837916,00000288,false,Rx,0,8,75,52,00,00,00,56,00,00,
5838171,00000380,false,Rx,0,8,00,4D,00,08,00,00,00,00,
5841913,00000480,false,Rx,0,8,53,22,00,00,19,06,00,6E,
5842393,00000050,false,Rx,0,4,00,01,A0,A1,00,00,00,00,
5843863,000001A0,false,Rx,0,8,00,43,00,00,FE,FE,00,16,
5844116,000004A0,false,Rx,0,8,00,00,00,00,00,00,00,00,
5844367,000005A0,false,Rx,0,8,64,01,00,DE,01,00,00,30,
5848562,00000280,false,Rx,0,8,01,73,00,00,73,00,2C,00,
5848588,00000488,false,Rx,0,8,A9,00,00,7F,A6,00,00,70,
5850950,000001A0,false,Rx,0,8,00,43,00,00,FE,FE,00,17,
5851914,00000588,false,Rx,0,8,E9,05,7F,00,63,00,00,00,
5857310,00000320,false,Rx,0,8,82,06,00,01,00,00,00,00,
5857642,00000420,false,Rx,0,8,06,78,78,43,00,00,FF,00,
5857888,000001A0,false,Rx,0,8,00,43,00,00,FE,FE,00,18,
5858141,00000288,false,Rx,0,8,8F,52,00,00,00,56,00,00,
5858390,00000380,false,Rx,0,8,00,4D,00,08,00,00,00,00,
5858644,000004A0,false,Rx,0,8,00,00,00,00,00,00,00,00,
5858815,000005A0,false,Rx,0,8,64,01,00,8C,0F,00,00,30,
5861945,00000480,false,Rx,0,8,A4,22,00,00,19,06,00,99,
5862422,00000050,false,Rx,0,4,00,01,B0,B1,00,00,00,00,
5864947,000001A0,false,Rx,0,8,00,43,00,00,FE,FE,00,19,
5868586,00000280,false,Rx,0,8,01,73,00,00,73,00,2C,00,
5868609,00000488,false,Rx,0,8,59,00,00,7F,A6,00,00,80,
5871900,000001A0,false,Rx,0,8,00,43,00,00,FE,FE,00,1A,
5872150,000004A0,false,Rx,0,8,00,00,00,00,00,00,00,00,
5872402,00000588,false,Rx,0,8,E9,05,7F,00,63,00,00,00,
5872656,000005A0,false,Rx,0,8,64,01,00,3A,1D,00,00,30,
5877976,00000288,false,Rx,0,8,8F,52,00,00,00,56,00,00,
5878230,00000380,false,Rx,0,8,00,4D,00,08,00,00,00,00,
5878859,000001A0,false,Rx,0,8,00,43,00,00,FE,FE,00,1B,
5881454,00000570,false,Rx,0,4,07,00,DE,00,00,00,00,00,
5881939,00000480,false,Rx,0,8,A4,22,00,00,19,06,00,99,
5882414,00000050,false,Rx,0,4,00,01,C0,C1,00,00,00,00,
5882824,00000320,false,Rx,0,8,82,06,00,01,00,00,00,00,
5885878,000001A0,false,Rx,0,8,00,43,00,00,FE,FE,00,1C,
5886132,000004A0,false,Rx,0,8,00,00,00,00,00,00,00,00,
5886378,000005A0,false,Rx,0,8,64,01,00,E8,2A,00,00,30,
5888644,00000280,false,Rx,0,8,01,73,00,00,73,00,2C,00,
5888669,00000488,false,Rx,0,8,B6,00,00,80,A6,00,00,90,
5892010,00000588,false,Rx,0,8,E9,05,80,00,63,00,00,00,
5892909,000001A0,false,Rx,0,8,00,43,00,00,FE,FE,00,1D,
5897933,00000288,false,Rx,0,8,8F,52,00,00,00,56,00,00,
5898188,00000380,false,Rx,0,8,00,4D,00,08,00,00,00,00,
5899882,000001A0,false,Rx,0,8,00,43,00,00,FE,FE,00,1E,
5900137,000004A0,false,Rx,0,8,00,00,00,00,00,00,00,00,
5900313,000005A0,false,Rx,0,8,64,01,00,96,38,00,00,30,
5901928,00000480,false,Rx,0,8,A4,22,00,00,19,06,00,99,
5902483,00000050,false,Rx,0,4,00,01,D0,D1,00,00,00,00,
5906926,000001A0,false,Rx,0,8,00,43,00,00,FE,FE,00,1F,
5908971,00000320,false,Rx,0,8,82,06,00,01,00,00,00,00,
5908996,00000280,false,Rx,0,8,01,73,00,00,73,00,2C,00,
5909013,00000488,false,Rx,0,8,86,00,00,80,A6,00,00,A0,
5909029,000005D8,false,Rx,0,8,15,04,00,03,01,00,00,00,
5909045,000005D0,false,Rx,0,6,80,47,51,30,24,41,00,00,
5909232,00000520,false,Rx,0,8,15,C0,01,2F,80,75,34,04,
5911965,00000588,false,Rx,0,8,E9,05,80,00,63,00,00,00,
5913965,000001A0,false,Rx,0,8,00,43,00,00,FE,FE,00,10,
5914220,000004A0,false,Rx,0,8,00,00,00,00,00,00,00,00,
5914470,000005A0,false,Rx,0,8,64,01,00,44,46,00,00,30,
5917906,00000288,false,Rx,0,8,8F,52,00,00,00,56,00,00,
5918161,00000380,false,Rx,0,8,00,4D,00,08,00,00,00,00,
5920842,000001A0,false,Rx,0,8,00,43,00,00,FE,FE,00,11,
5921931,00000480,false,Rx,0,8,A4,22,00,00,19,06,00,99,
5922485,00000050,false,Rx,0,4,00,01,E0,E1,00,00,00,00,
5928796,000001A0,false,Rx,0,8,00,43,00,00,FE,FE,00,12,
5928825,00000280,false,Rx,0,8,01,73,00,00,73,00,2C,00,
5928841,00000488,false,Rx,0,8,96,00,00,80,A6,00,00,B0,
5928857,000004A0,false,Rx,0,8,00,00,00,00,00,00,00,00,
5928873,000005A0,false,Rx,0,8,64,01,00,F2,53,00,00,30,
5931992,00000588,false,Rx,0,8,E9,06,80,00,63,00,00,00,
5933418,00000320,false,Rx,0,8,82,06,00,01,00,00,00,00,
5934974,000001A0,false,Rx,0,8,00,43,00,00,FE,FE,00,13,
5937965,00000288,false,Rx,0,8,DE,52,00,00,00,56,00,00,
5938219,00000380,false,Rx,0,8,00,4D,00,08,00,00,00,00,
5941887,000001A0,false,Rx,0,8,00,43,00,00,FE,FE,00,14,
5942136,00000480,false,Rx,0,8,ED,22,00,00,19,06,00,D0,
5942388,000004A0,false,Rx,0,8,00,00,00,00,00,00,00,00,
5942566,00000050,false,Rx,0,4,00,01,F0,F1,00,00,00,00,
5942812,000005A0,false,Rx,0,8,64,01,00,A0,61,00,00,30,
5948817,00000280,false,Rx,0,8,01,73,00,00,73,00,2C,00,
5948840,00000488,false,Rx,0,8,E6,00,00,80,A6,00,00,C0,
5949029,000001A0,false,Rx,0,8,00,43,00,00,FE,FE,00,15,
5951929,00000588,false,Rx,0,8,E9,06,80,00,63,00,00,00,
5955896,000001A0,false,Rx,0,8,00,43,00,00,FE,FE,00,16,
5956143,000004A0,false,Rx,0,8,00,00,00,00,00,00,00,00,
5956321,000005A0,false,Rx,0,8,64,01,00,4E,6F,00,00,30,
5957636,00000320,false,Rx,0,8,82,06,00,01,00,00,00,00,
5957963,00000288,false,Rx,0,8,DE,52,00,00,00,56,00,00,
5958213,00000380,false,Rx,0,8,00,4D,00,08,00,00,00,00,
5961957,00000480,false,Rx,0,8,ED,22,00,00,19,06,00,D0,
5962514,00000050,false,Rx,0,4,00,01,00,01,00,00,00,00,
5962916,000001A0,false,Rx,0,8,00,43,00,00,FE,FE,00,17,
5968816,00000280,false,Rx,0,8,01,73,00,00,73,00,2C,00,
5968840,00000488,false,Rx,0,8,09,00,00,7F,A6,00,00,D0,
5970037,000001A0,false,Rx,0,8,00,43,00,00,FE,FE,00,18,
5970234,000004A0,false,Rx,0,8,00,00,00,00,00,00,00,00,
5970479,000005A0,false,Rx,0,8,64,01,00,FC,7C,00,00,30,
5971947,00000588,false,Rx,0,8,E9,06,7F,00,63,00,00,00,
5976897,000001A0,false,Rx,0,8,00,43,00,00,FE,FE,00,19,
5977909,00000288,false,Rx,0,8,DE,52,00,00,00,56,00,00,
5978163,00000380,false,Rx,0,8,00,4D,00,08,00,00,00,00,
5981602,00000570,false,Rx,0,4,07,00,DE,00,00,00,00,00,
5981927,00000480,false,Rx,0,8,ED,22,00,00,19,06,00,D0,
5982561,00000050,false,Rx,0,4,00,01,10,11,00,00,00,00,
5982961,00000320,false,Rx,0,8,82,06,00,01,00,00,00,00,
5983971,000001A0,false,Rx,0,8,00,43,00,00,FE,FE,00,1A,
5984224,000004A0,false,Rx,0,8,00,00,00,00,00,00,00,00,
5984470,000005A0,false,Rx,0,8,64,01,00,AA,8A,00,00,30,
5988834,00000280,false,Rx,0,8,01,73,00,00,73,00,2C,00,
5988861,00000488,false,Rx,0,8,C6,00,00,80,A6,00,00,E0,
5990975,000001A0,false,Rx,0,8,00,43,00,00,FE,FE,00,1B,
5991908,00000588,false,Rx,0,8,E9,06,80,00,63,00,00,00,
5997917,000001A0,false,Rx,0,8,00,43,00,00,FE,FE,00,1C,
5998098,00000288,false,Rx,0,8,DE,52,00,00,00,56,00,00,
5998345,00000380,false,Rx,0,8,00,4D,00,08,00,00,00,00,
5998599,000004A0,false,Rx,0,8,00,00,00,00,00,00,00,00,
5998845,000005A0,false,Rx,0,8,64,01,00,58,98,00,00,30,
6001902,00000480,false,Rx,0,8,ED,22,00,00,19,06,00,D0,
6002538,00000050,false,Rx,0,4,00,01,20,21,00,00,00,00,
6004983,000001A0,false,Rx,0,8,00,43,00,00,FE,FE,00,1D,
6008933,00000320,false,Rx,0,8,82,06,00,01,00,00,00,00,
6008958,00000280,false,Rx,0,8,01,73,00,00,73,00,2C,00,
6008975,00000488,false,Rx,0,8,D6,00,00,80,A6,00,00,F0,
6008999,000005D8,false,Rx,0,8,15,04,00,03,01,00,00,00,
6009015,000005D0,false,Rx,0,6,80,47,51,30,24,41,00,00,
6011938,00000588,false,Rx,0,8,E9,06,80,00,63,00,00,00,
6012151,000001A0,false,Rx,0,8,00,43,00,00,FE,FE,00,1E,
6012401,000004A0,false,Rx,0,8,00,00,00,00,00,00,00,00,
6012654,000005A0,false,Rx,0,8,64,01,00,06,A6,00,00,30,
6017902,00000288,false,Rx,0,8,0C,52,00,00,00,56,00,00,
6018157,00000380,false,Rx,0,8,00,4D,00,08,00,00,00,00,
6018940,000001A0,false,Rx,0,8,00,43,00,00,FE,FE,00,1F,
6021920,00000480,false,Rx,0,8,19,22,00,00,19,06,00,24,
6022560,00000050,false,Rx,0,4,00,01,30,31,00,00,00,00,
6025916,000001A0,false,Rx,0,8,00,43,00,00,FE,FE,00,10,
6026172,000004A0,false,Rx,0,8,00,00,00,00,00,00,00,00,
6026422,000005A0,false,Rx,0,8,64,01,00,B4,B3,00,00,30,
6029016,00000280,false,Rx,0,8,01,73,00,00,73,00,2C,00,
6029043,00000488,false,Rx,0,8,D9,00,00,7F,A6,00,00,00,
6031912,00000588,false,Rx,0,8,E9,06,7F,00,63,00,00,00,
6032644,00000320,false,Rx,0,8,82,06,00,01,00,00,00,00,
6033010,000001A0,false,Rx,0,8,00,43,00,00,FE,FE,00,11,
6037906,00000288,false,Rx,0,8,0C,52,00,00,00,56,00,00,
6038160,00000380,false,Rx,0,8,00,4D,00,08,00,00,00,00,
6039959,000001A0,false,Rx,0,8,00,43,00,00,FE,FE,00,12,
6040214,000004A0,false,Rx,0,8,00,00,00,00,00,00,00,00,
6040465,000005A0,false,Rx,0,8,64,01,00,62,C1,00,00,30,
6041930,00000480,false,Rx,0,8,19,22,00,00,19,06,00,24,
6042568,00000050,false,Rx,0,4,00,01,40,41,00,00,00,00,
6046983,000001A0,false,Rx,0,8,00,43,00,00,FE,FE,00,13,
6048980,00000280,false,Rx,0,8,01,73,00,00,73,00,2C,00,
6049005,00000488,false,Rx,0,8,36,00,00,80,A6,00,00,10,
6051986,00000588,false,Rx,0,8,E9,07,80,00,63,00,00,00,
6054009,000001A0,false,Rx,0,8,00,43,00,00,FE,FE,00,14,
6054257,000004A0,false,Rx,0,8,00,00,00,00,00,00,00,00,
6054511,000005A0,false,Rx,0,8,64,01,00,10,CF,00,00,30,
6057413,00000320,false,Rx,0,8,82,06,00,01,00,00,00,00,
6057668,00000420,false,Rx,0,8,06,78,78,43,00,00,FF,00,
6057915,00000288,false,Rx,0,8,0C,52,00,00,00,56,00,00,
6058168,00000380,false,Rx,0,8,00,4D,00,08,00,00,00,00,
6060996,000001A0,false,Rx,0,8,00,43,00,00,FE,FE,00,15,
6061925,00000480,false,Rx,0,8,19,22,00,00,19,06,00,24,
6062637,00000050,false,Rx,0,4,00,01,50,51,00,00,00,00,
6069075,00000280,false,Rx,0,8,01,73,00,00,73,00,2C,00,
6069103,000001A0,false,Rx,0,8,00,43,00,00,FE,FE,00,16,
6069120,00000488,false,Rx,0,8,F9,00,00,7F,A6,00,00,20,
6069136,000004A0,false,Rx,0,8,00,00,00,00,00,00,00,00,
6069152,000005A0,false,Rx,0,8,64,01,00,BE,DC,00,00,30,
6071922,00000588,false,Rx,0,8,E9,07,7F,00,63,00,00,00,
6075057,000001A0,false,Rx,0,8,00,43,00,00,FE,FE,00,17,
6077963,00000288,false,Rx,0,8,0C,52,00,00,00,56,00,00,
6078218,00000380,false,Rx,0,8,00,4D,00,08,00,00,00,00,
6081773,00000570,false,Rx,0,4,07,00,DE,00,00,00,00,00,
6082021,000001A0,false,Rx,0,8,00,43,00,00,FE,FE,00,18,
6082274,00000480,false,Rx,0,8,19,22,00,00,19,06,00,24,
6082528,000004A0,false,Rx,0,8,00,00,00,00,00,00,00,00,
6082699,00000050,false,Rx,0,4,00,01,60,61,00,00,00,00,
6082870,000005A0,false,Rx,0,8,64,01,00,6C,EA,00,00,30,
6083352,00000320,false,Rx,0,8,82,06,00,01,00,00,00,00,
6089111,00000280,false,Rx,0,8,01,73,00,00,73,00,2C,00,
6089133,00000488,false,Rx,0,8,16,00,00,80,A6,00,00,30,
6089149,000001A0,false,Rx,0,8,00,43,00,00,FE,FE,00,19,
6092002,00000588,false,Rx,0,8,E9,07,80,00,63,00,00,00,
6095920,000001A0,false,Rx,0,8,00,43,00,00,FE,FE,00,1A,
6096177,000004A0,false,Rx,0,8,00,00,00,00,00,00,00,00,
6096426,000005A0,false,Rx,0,8,64,01,00,1A,F8,00,00,30,
6097966,00000288,false,Rx,0,8,75,52,00,00,00,56,00,00,
6098218,00000380,false,Rx,0,8,00,4D,00,08,00,00,00,00,
6101954,00000480,false,Rx,0,8,53,22,00,00,19,06,00,6E,
6102666,00000050,false,Rx,0,4,00,01,70,71,00,00,00,00,
6102991,000001A0,false,Rx,0,8,00,43,00,00,FE,FE,00,1B,
6109159,00000320,false,Rx,0,8,82,06,00,01,00,00,00,00,
6109185,00000280,false,Rx,0,8,01,73,00,00,73,00,2C,00,
6109201,00000488,false,Rx,0,8,99,00,00,7F,A6,00,00,40,
6109217,000005D8,false,Rx,0,8,15,04,00,03,01,00,00,00,
6109233,000005D0,false,Rx,0,6,80,47,51,30,24,41,00,00,
6109249,00000520,false,Rx,0,8,02,04,01,2F,80,75,34,04,
6110146,000001A0,false,Rx,0,8,00,43,00,00,FE,FE,00,1C,
6110392,000004A0,false,Rx,0,8,00,00,00,00,00,00,00,00,
6110571,000005A0,false,Rx,0,8,64,01,00,C8,05,00,00,30,
6111960,00000588,false,Rx,0,8,E9,07,7F,00,63,00,00,00,
6116983,000001A0,false,Rx,0,8,00,43,00,00,FE,FE,00,1D,
6117922,00000288,false,Rx,0,8,75,52,00,00,00,56,00,00,
6118178,00000380,false,Rx,0,8,00,4D,00,08,00,00,00,00,
6121917,00000480,false,Rx,0,8,53,22,00,00,19,06,00,6E,
6122707,00000050,false,Rx,0,4,00,01,80,81,00,00,00,00,
6124022,000001A0,false,Rx,0,8,00,43,00,00,FE,FE,00,1E,
6124268,000004A0,false,Rx,0,8,00,00,00,00,00,00,00,00,
6124523,000005A0,false,Rx,0,8,64,01,00,76,13,00,00,30,
6129145,00000280,false,Rx,0,8,01,73,00,00,73,00,2C,00,
6129168,00000488,false,Rx,0,8,76,00,00,80,A6,00,00,50,
6131132,000001A0,false,Rx,0,8,00,43,00,00,FE,FE,00,1F,
6131947,00000588,false,Rx,0,8,E9,07,80,00,63,00,00,00,
6132730,00000320,false,Rx,0,8,82,06,00,01,00,00,00,00,
6137919,00000288,false,Rx,0,8,75,52,00,00,00,56,00,00,
6138205,000001A0,false,Rx,0,8,00,43,00,00,FE,FE,00,10,
6138455,00000380,false,Rx,0,8,00,4D,00,08,00,00,00,00,
6138708,000004A0,false,Rx,0,8,00,00,00,00,00,00,00,00,
6138878,000005A0,false,Rx,0,8,64,01,00,24,21,00,00,30,
6141930,00000480,false,Rx,0,8,53,22,00,00,19,06,00,6E,
6142644,00000050,false,Rx,0,4,00,01,90,91,00,00,00,00,
6145061,000001A0,false,Rx,0,8,00,43,00,00,FE,FE,00,11,
6149166,00000280,false,Rx,0,8,01,73,00,00,73,00,2C,00,
6149193,00000488,false,Rx,0,8,46,00,00,80,A6,00,00,60,
6151976,00000588,false,Rx,0,8,E9,07,80,00,63,00,00,00,
6152150,000001A0,false,Rx,0,8,00,43,00,00,FE,FE,00,12,
6152395,000004A0,false,Rx,0,8,00,00,00,00,00,00,00,00,
6152649,000005A0,false,Rx,0,8,64,01,00,D2,2E,00,00,30,
6157417,00000320,false,Rx,0,8,82,06,00,01,00,00,00,00,
6158240,00000288,false,Rx,0,8,75,52,00,00,00,56,00,00,
6158266,00000380,false,Rx,0,8,00,4D,00,08,00,00,00,00,
6159039,000001A0,false,Rx,0,8,00,43,00,00,FE,FE,00,13,
6161945,00000480,false,Rx,0,8,53,22,00,00,19,06,00,6E,
6162734,00000050,false,Rx,0,4,00,01,A0,A1,00,00,00,00,
6166020,000001A0,false,Rx,0,8,00,43,00,00,FE,FE,00,14,
6166270,000004A0,false,Rx,0,8,00,00,00,00,00,00,00,00,
6166524,000005A0,false,Rx,0,8,64,01,00,80,3C,00,00,30,
6169149,00000280,false,Rx,0,8,01,73,00,00,73,00,2C,00,
6169175,00000488,false,Rx,0,8,56,00,00,80,A6,00,00,70,
6171956,00000588,false,Rx,0,8,E9,08,80,00,63,00,00,00,
6173047,000001A0,false,Rx,0,8,00,43,00,00,FE,FE,00,15,
6177922,00000288,false,Rx,0,8,8F,52,00,00,00,56,00,00,
6178178,00000380,false,Rx,0,8,00,4D,00,08,00,00,00,00,
6180025,000001A0,false,Rx,0,8,00,43,00,00,FE,FE,00,16,
6180270,000004A0,false,Rx,0,8,00,00,00,00,00,00,00,00,
6180523,000005A0,false,Rx,0,8,64,01,00,2E,4A,00,00,30,
6181537,00000570,false,Rx,0,4,07,00,DE,00,00,00,00,00,
6181932,00000480,false,Rx,0,8,A4,22,00,00,19,06,00,99,
6182795,00000320,false,Rx,0,8,82,06,00,01,00,00,00,00,
6182966,00000050,false,Rx,0,4,00,01,B0,B1,00,00,00,00,
6187115,000001A0,false,Rx,0,8,00,43,00,00,FE,FE,00,17,
6189273,00000280,false,Rx,0,8,01,73,00,00,73,00,2C,00,
6189296,00000488,false,Rx,0,8,A6,00,00,80,A6,00,00,80,
6191941,00000588,false,Rx,0,8,E9,08,80,00,63,00,00,00,
6194130,000001A0,false,Rx,0,8,00,43,00,00,FE,FE,00,18,
6194380,000004A0,false,Rx,0,8,00,00,00,00,00,00,00,00,
6194558,000005A0,false,Rx,0,8,64,01,00,DC,57,00,00,30,
6197913,00000288,false,Rx,0,8,8F,52,00,00,00,56,00,00,
6198166,00000380,false,Rx,0,8,00,4D,00,08,00,00,00,00,
6201073,000001A0,false,Rx,0,8,00,43,00,00,FE,FE,00,19,
6201930,00000480,false,Rx,0,8,A4,22,00,00,19,06,00,99,
6202715,00000050,false,Rx,0,4,00,01,C0,C1,00,00,00,00,
6209301,00000320,false,Rx,0,8,82,06,00,01,00,00,00,00,
6209325,00000280,false,Rx,0,8,01,73,00,00,73,00,2C,00,
6209346,000001A0,false,Rx,0,8,00,43,00,00,FE,FE,00,1A,
6209362,00000488,false,Rx,0,8,B6,00,00,80,A6,00,00,90,
6209378,000004A0,false,Rx,0,8,00,00,00,00,00,00,00,00,
6209394,000005A0,false,Rx,0,8,64,01,00,8A,65,00,00,30,
6209410,000005D8,false,Rx,0,8,15,04,00,03,01,00,00,00,
6209539,000005D0,false,Rx,0,6,80,47,51,30,24,41,00,00,
6211913,00000588,false,Rx,0,8,E9,08,80,00,63,00,00,00,
6215122,000001A0,false,Rx,0,8,00,43,00,00,FE,FE,00,1B,
6217879,00000288,false,Rx,0,8,8F,52,00,00,00,56,00,00,
6218135,00000380,false,Rx,0,8,00,4D,00,08,00,00,00,00,
6221948,00000480,false,Rx,0,8,A4,22,00,00,19,06,00,99,
6222202,000001A0,false,Rx,0,8,00,43,00,00,FE,FE,00,1C,
6222448,000004A0,false,Rx,0,8,00,00,00,00,00,00,00,00,
6222626,000005A0,false,Rx,0,8,64,01,00,38,73,00,00,30,
6222797,00000050,false,Rx,0,4,00,01,D0,D1,00,00,00,00,
6229311,00000280,false,Rx,0,8,01,73,00,00,73,00,2C,00,
6229336,00000488,false,Rx,0,8,86,00,00,80,A6,00,00,A0,
6229353,000001A0,false,Rx,0,8,00,43,00,00,FE,FE,00,1D,
6231989,00000588,false,Rx,0,8,E9,08,80,00,63,00,00,00,
6232580,00000320,false,Rx,0,8,82,06,00,01,00,00,00,00,
6236008,000001A0,false,Rx,0,8,00,43,00,00,FE,FE,00,1E,
6236258,000004A0,false,Rx,0,8,00,00,00,00,00,00,00,00,
6236512,000005A0,false,Rx,0,8,64,01,00,E6,80,00,00,30,
6238120,00000288,false,Rx,0,8,8F,52,00,00,00,56,00,00,
6238327,00000380,false,Rx,0,8,00,4D,00,08,00,00,00,00,
6241937,00000480,false,Rx,0,8,A4,22,00,00,19,06,00,99,
6242727,00000050,false,Rx,0,4,00,01,E0,E1,00,00,00,00,
6243058,000001A0,false,Rx,0,8,00,43,00,00,FE,FE,00,1F,
6249388,00000280,false,Rx,0,8,01,73,00,00,73,00,2C,00,
6249414,00000488,false,Rx,0,8,96,00,00,80,A6,00,00,B0,
6250158,000001A0,false,Rx,0,8,00,43,00,00,FE,FE,00,10,
6250408,000004A0,false,Rx,0,8,00,00,00,00,00,00,00,00,
6250662,000005A0,false,Rx,0,8,64,01,00,94,8E,00,00,30,
6251900,00000588,false,Rx,0,8,E9,08,80,00,63,00,00,00,
6257006,000001A0,false,Rx,0,8,00,43,00,00,FE,FE,00,11,
6257259,00000320,false,Rx,0,8,82,06,00,01,00,00,00,00,
6257587,00000420,false,Rx,0,8,06,78,78,43,00,00,FF,00,
6257907,00000288,false,Rx,0,8,DE,52,00,00,00,56,00,00,
6258161,00000380,false,Rx,0,8,00,4D,00,08,00,00,00,00,
6261902,00000480,false,Rx,0,8,ED,22,00,00,19,06,00,D0,
6262766,00000050,false,Rx,0,4,00,01,F0,F1,00,00,00,00,
6264153,000001A0,false,Rx,0,8,00,43,00,00,FE,FE,00,12,
6264400,000004A0,false,Rx,0,8,00,00,00,00,00,00,00,00,
6264654,000005A0,false,Rx,0,8,64,01,00,42,9C,00,00,30,
6269460,00000280,false,Rx,0,8,01,73,00,00,73,00,2C,00,
6269483,00000488,false,Rx,0,8,E6,00,00,80,A6,00,00,C0,
6271180,000001A0,false,Rx,0,8,00,43,00,00,FE,FE,00,13,
6271920,00000588,false,Rx,0,8,E9,08,80,00,63,00,00,00,
6277932,00000288,false,Rx,0,8,DE,52,00,00,00,56,00,00,
6278188,000001A0,false,Rx,0,8,00,43,00,00,FE,FE,00,14,
6278434,00000380,false,Rx,0,8,00,4D,00,08,00,00,00,00,
6278688,000004A0,false,Rx,0,8,00,00,00,00,00,00,00,00,
6278934,000005A0,false,Rx,0,8,64,01,00,F0,A9,00,00,30,
6281692,00000570,false,Rx,0,4,07,00,DE,00,00,00,00,00,
6281938,00000480,false,Rx,0,8,ED,22,00,00,19,06,00,D0,
6282801,00000050,false,Rx,0,4,00,01,00,01,00,00,00,00,
6283049,00000320,false,Rx,0,8,82,06,00,01,00,00,00,00,
6285122,000001A0,false,Rx,0,8,00,43,00,00,FE,FE,00,15,
6289373,00000280,false,Rx,0,8,01,73,00,00,73,00,2C,00,
6289395,00000488,false,Rx,0,8,F6,00,00,80,A6,00,00,D0,
6291937,00000588,false,Rx,0,8,E9,09,80,00,63,00,00,00,
6292193,000001A0,false,Rx,0,8,00,43,00,00,FE,FE,00,16,
6292439,000004A0,false,Rx,0,8,00,00,00,00,00,00,00,00,
6292692,000005A0,false,Rx,0,8,64,01,00,9E,B7,00,00,30,
6297948,00000288,false,Rx,0,8,DE,52,00,00,00,56,00,00,
6298202,00000380,false,Rx,0,8,00,4D,00,08,00,00,00,00,
6299056,000001A0,false,Rx,0,8,00,43,00,00,FE,FE,00,17,
6301888,00000480,false,Rx,0,8,ED,22,00,00,19,06,00,D0,
6302830,00000050,false,Rx,0,4,00,01,10,11,00,00,00,00,
6303926,00000580,false,Rx,0,8,01,00,00,7C,5A,A0,28,FF,
6306112,000001A0,false,Rx,0,8,00,43,00,00,FE,FE,00,18,
6306365,000004A0,false,Rx,0,8,00,00,00,00,00,00,00,00,
6306618,000005A0,false,Rx,0,8,64,01,00,4C,C5,00,00,30,
6309522,00000280,false,Rx,0,8,01,73,00,00,73,00,2C,00,
6309546,00000320,false,Rx,0,8,82,06,00,01,00,00,00,00,
6309562,00000488,false,Rx,0,8,C6,00,00,80,A6,00,00,E0,
6309578,000005D8,false,Rx,0,8,15,04,00,03,01,00,00,00,
6309594,000005D0,false,Rx,0,6,80,47,51,30,24,41,00,00,
6309609,00000520,false,Rx,0,8,51,67,01,2F,80,75,34,04,
6311984,00000588,false,Rx,0,8,E9,09,80,00,63,00,00,00,
6313177,000001A0,false,Rx,0,8,00,43,00,00,FE,FE,00,19,
6317902,00000288,false,Rx,0,8,DE,52,00,00,00,56,00,00,
6318159,00000380,false,Rx,0,8,00,4D,00,08,00,00,00,00,
6320080,000001A0,false,Rx,0,8,00,43,00,00,FE,FE,00,1A,
6320327,000004A0,false,Rx,0,8,00,00,00,00,00,00,00,00,
6320580,000005A0,false,Rx,0,8,64,01,00,FA,D2,00,00,30,
6321893,00000480,false,Rx,0,8,ED,20,00,00,19,06,00,D2,
6322832,00000050,false,Rx,0,4,00,01,20,21,00,00,00,00,
6327100,000001A0,false,Rx,0,8,00,43,00,00,FE,FE,00,1B,
6327879,00000280,false,Rx,0,8,01,73,00,00,73,00,2C,00,
6329605,00000488,false,Rx,0,8,D6,00,00,80,A6,00,00,F0,
6331948,00000588,false,Rx,0,8,E9,09,80,00,63,00,00,00,
6333346,00000320,false,Rx,0,8,02,06,00,01,00,00,00,00,
6334205,000001A0,false,Rx,0,8,00,43,00,00,FE,FE,00,1C,
6334443,000004A0,false,Rx,0,8,00,00,00,00,00,00,00,00,
6334711,000005A0,false,Rx,0,8,64,01,00,A8,E0,00,00,30,
6338064,00000288,false,Rx,0,8,0C,52,00,00,00,56,00,00,
6338316,00000380,false,Rx,0,8,00,4D,00,08,00,00,00,00,
6341136,000001A0,false,Rx,0,8,00,43,00,00,FE,FE,00,1D,
6341946,00000480,false,Rx,0,8,19,20,00,00,19,06,00,26,
6342879,00000050,false,Rx,0,4,00,01,30,31,00,00,00,00,
6347937,00000280,false,Rx,0,8,01,73,00,00,73,00,2C,00,
6349617,000001A0,false,Rx,0,8,00,43,00,00,FE,FE,00,1E,
6349644,00000488,false,Rx,0,8,26,00,00,80,A6,00,00,00,
6349660,000004A0,false,Rx,0,8,00,00,00,00,00,00,00,00,
6349676,000005A0,false,Rx,0,8,64,01,00,56,EE,00,00,30,
6351993,00000588,false,Rx,0,8,E9,09,80,00,63,00,00,00,
6355155,000001A0,false,Rx,0,8,00,43,00,00,FE,FE,00,1F,
6357535,00000320,false,Rx,0,8,02,06,00,01,00,00,00,00,
6357936,00000288,false,Rx,0,8,0C,52,00,00,00,56,00,00,
6358185,00000380,false,Rx,0,8,00,4D,00,08,00,00,00,00,
6362029,00000480,false,Rx,0,8,19,20,00,00,19,06,00,26,
6362162,000001A0,false,Rx,0,8,00,43,00,00,FE,FE,00,10,
6362409,000004A0,false,Rx,0,8,00,00,00,00,00,00,00,00,
6362663,000005A0,false,Rx,0,8,64,01,00,04,FC,00,00,30,
6362909,00000050,false,Rx,0,4,00,01,40,41,00,00,00,00,
6367917,00000280,false,Rx,0,8,01,73,00,00,73,00,2C,00,
6369670,00000488,false,Rx,0,8,36,00,00,80,A6,00,00,10,
6369693,000001A0,false,Rx,0,8,00,43,00,00,FE,FE,00,11,
6371890,00000588,false,Rx,0,8,E9,09,80,00,63,00,00,00,
6376126,000001A0,false,Rx,0,8,00,43,00,00,FE,FE,00,12,
6376379,000004A0,false,Rx,0,8,00,00,00,00,00,00,00,00,
6376558,000005A0,false,Rx,0,8,64,01,00,B2,09,00,00,30,
6377940,00000288,false,Rx,0,8,0C,52,00,00,00,56,00,00,
6378193,00000380,false,Rx,0,8,00,4D,00,08,00,00,00,00,
6381553,00000570,false,Rx,0,4,07,00,DE,00,00,00,00,00,
6381879,00000480,false,Rx,0,8,19,20,00,00,19,06,00,26,
6382812,00000320,false,Rx,0,8,02,06,00,01,00,00,00,00,
6382989,00000050,false,Rx,0,4,00,01,50,51,00,00,00,00,
6383237,000001A0,false,Rx,0,8,00,43,00,00,FE,FE,00,13,
6388040,00000280,false,Rx,0,8,01,73,00,00,73,00,2C,00,
6389724,00000488,false,Rx,0,8,06,00,00,80,A6,00,00,20,
6390303,000001A0,false,Rx,0,8,00,43,00,00,FE,FE,00,14,
6390506,000004A0,false,Rx,0,8,00,00,00,00,00,00,00,00,
6390837,000005A0,false,Rx,0,8,64,01,00,60,17,00,00,30,
6391948,00000588,false,Rx,0,8,E9,09,80,00,63,00,00,00,
6397121,000001A0,false,Rx,0,8,00,43,00,00,FE,FE,00,15,
6397906,00000288,false,Rx,0,8,0C,52,00,00,00,56,00,00,
6398154,00000380,false,Rx,0,8,00,4D,00,08,00,00,00,00,
6401890,00000480,false,Rx,0,8,19,20,00,00,19,06,00,26,
6402896,00000050,false,Rx,0,4,00,01,60,61,00,00,00,00,
6404207,000001A0,false,Rx,0,8,00,43,00,00,FE,FE,00,16,
6404453,000004A0,false,Rx,0,8,00,00,00,00,00,00,00,00,
6404707,000005A0,false,Rx,0,8,64,01,00,0E,25,00,00,30,
6407943,00000280,false,Rx,0,8,01,73,00,00,73,00,2C,00,
6408143,00000320,false,Rx,0,8,02,06,00,01,00,00,00,00,
6409757,00000488,false,Rx,0,8,16,00,00,80,A6,00,00,30,
6409779,000005D8,false,Rx,0,8,15,04,00,03,01,00,00,00,
6409795,000005D0,false,Rx,0,6,80,47,51,30,24,41,00,00,
6411267,000001A0,false,Rx,0,8,00,43,00,00,FE,FE,00,17,
6411896,00000588,false,Rx,0,8,E9,09,80,00,63,00,00,00,
6417947,00000288,false,Rx,0,8,75,52,00,00,00,56,00,00,
6418130,000001A0,false,Rx,0,8,00,43,00,00,FE,FE,00,18,
6418377,00000380,false,Rx,0,8,00,4D,00,08,00,00,00,00,
6418631,000004A0,false,Rx,0,8,00,00,00,00,00,00,00,00,
6418877,000005A0,false,Rx,0,8,64,01,00,BC,32,00,00,30,
6421932,00000480,false,Rx,0,8,53,20,00,00,19,06,00,6C,
6422944,00000050,false,Rx,0,4,00,01,70,71,00,00,00,00,
6425246,000001A0,false,Rx,0,8,00,43,00,00,FE,FE,00,19,
6427926,00000280,false,Rx,0,8,01,73,00,00,73,00,2C,00,
6428106,00000488,false,Rx,0,8,66,00,00,80,A6,00,00,40,
6431986,00000588,false,Rx,0,8,E9,0A,80,00,63,00,00,00,
6432265,000001A0,false,Rx,0,8,00,43,00,00,FE,FE,00,1A,
6432518,000004A0,false,Rx,0,8,00,00,00,00,00,00,00,00,
6432764,00000320,false,Rx,0,8,02,06,00,01,00,00,00,00,
6432935,000005A0,false,Rx,0,8,64,01,00,6A,40,00,00,30,
6438035,00000288,false,Rx,0,8,75,52,00,00,00,56,00,00,
6438286,00000380,false,Rx,0,8,00,4D,00,08,00,00,00,00,
6439220,000001A0,false,Rx,0,8,00,43,00,00,FE,FE,00,1B,
6441897,00000480,false,Rx,0,8,53,20,00,00,19,06,00,6C,
6442964,00000050,false,Rx,0,4,00,01,80,81,00,00,00,00,
6446197,000001A0,false,Rx,0,8,00,43,00,00,FE,FE,00,1C,
6446472,000004A0,false,Rx,0,8,00,00,00,00,00,00,00,00,
6446674,000005A0,false,Rx,0,8,64,01,00,18,4E,00,00,30,
6447913,00000280,false,Rx,0,8,01,73,00,00,73,00,2C,00,
6448166,00000488,false,Rx,0,8,76,00,00,80,A6,00,00,50,
6451944,00000588,false,Rx,0,8,E9,0A,80,00,63,00,00,00,
6453208,000001A0,false,Rx,0,8,00,43,00,00,FE,FE,00,1D,
6457325,00000320,false,Rx,0,8,02,06,00,01,00,00,00,00,
6457653,00000420,false,Rx,0,8,06,78,78,43,00,00,FF,00,
6457899,00000288,false,Rx,0,8,75,52,00,00,00,56,00,00,
6458156,00000380,false,Rx,0,8,00,4D,00,08,00,00,00,00,
6460228,000001A0,false,Rx,0,8,00,43,00,00,FE,FE,00,1E,
6460474,000004A0,false,Rx,0,8,00,00,00,00,00,00,00,00,
6460653,000005A0,false,Rx,0,8,64,01,00,C6,5B,00,00,30,
6461894,00000480,false,Rx,0,8,53,20,00,00,19,06,00,6C,
6462982,00000050,false,Rx,0,4,00,01,90,91,00,00,00,00,
6467175,000001A0,false,Rx,0,8,00,43,00,00,FE,FE,00,1F,
6467879,00000280,false,Rx,0,8,01,73,00,00,73,00,2C,00,
6468127,00000488,false,Rx,0,8,46,00,00,80,A6,00,00,60,
6471960,00000588,false,Rx,0,8,E9,0A,80,00,63,00,00,00,
6474277,000001A0,false,Rx,0,8,00,43,00,00,FE,FE,00,10,
6474533,000004A0,false,Rx,0,8,00,00,00,00,00,00,00,00,
6474778,000005A0,false,Rx,0,8,64,01,00,74,69,00,00,30,
6477922,00000288,false,Rx,0,8,75,52,00,00,00,56,00,00,
6478201,00000380,false,Rx,0,8,00,4D,00,08,00,00,00,00,
6481183,000001A0,false,Rx,0,8,00,43,00,00,FE,FE,00,11,
6481586,00000570,false,Rx,0,4,07,00,DE,00,00,00,00,00,
6481907,00000480,false,Rx,0,8,53,20,00,00,19,06,00,6C,
6482916,00000320,false,Rx,0,8,02,06,00,01,00,00,00,00,
6483098,00000050,false,Rx,0,4,00,01,A0,A1,00,00,00,00,
6487972,00000280,false,Rx,0,8,01,73,00,00,73,00,2C,00,
6488223,00000488,false,Rx,0,8,56,00,00,80,A6,00,00,70,
6508075,00001000,true,Rx,0,8,00,00,02,8A,00,00,B2,78,
6509562,00001001,true,Rx,0,8,00,00,00,00,00,00,00,00,
6489959,000001A0,false,Rx,0,8,00,43,00,00,FE,FE,00,12,
6489983,000004A0,false,Rx,0,8,00,00,00,00,00,00,00,00,
6489999,000005A0,false,Rx,0,8,64,01,00,22,77,00,00,30,
6491939,00000588,false,Rx,0,8,E9,0A,80,00,63,00,00,00,
6495288,000001A0,false,Rx,0,8,00,43,00,00,FE,FE,00,13,
6497890,00000288,false,Rx,0,8,8F,52,00,00,00,56,00,00,
6498138,00000380,false,Rx,0,8,00,4D,00,08,00,00,00,00,
6501873,00000480,false,Rx,0,8,A4,20,00,00,19,06,00,9B,
6502196,000001A0,false,Rx,0,8,00,43,00,00,FE,FE,00,14,
6502448,000004A0,false,Rx,0,8,00,00,00,00,00,00,00,00,
6502702,000005A0,false,Rx,0,8,64,01,00,D0,84,00,00,30,
6503027,00000050,false,Rx,0,4,00,01,B0,B1,00,00,00,00,
6511610,00000280,false,Rx,0,8,01,73,00,00,73,00,2C,00,
6511635,00000320,false,Rx,0,8,02,06,00,01,00,00,00,00,
6511655,00000488,false,Rx,0,8,A6,00,00,80,A6,00,00,80,
6511672,000005D8,false,Rx,0,8,15,04,00,03,01,00,00,00,
6511689,000005D0,false,Rx,0,6,80,47,51,30,24,41,00,00,
6511705,00000520,false,Rx,0,8,0C,88,01,2F,80,75,34,04,
6511721,000001A0,false,Rx,0,8,00,43,00,00,FE,FE,00,15,
6513211,00000588,false,Rx,0,8,E9,0A,80,00,63,00,00,00,
6516269,000001A0,false,Rx,0,8,00,43,00,00,FE,FE,00,16,
6516475,000004A0,false,Rx,0,8,00,00,00,00,00,00,00,00,
6516729,000005A0,false,Rx,0,8,64,01,00,7E,92,00,00,30,
6517890,00000288,false,Rx,0,8,8F,52,00,00,00,56,00,00,
6518145,00000380,false,Rx,0,8,00,4D,00,08,00,00,00,00,
6521883,00000480,false,Rx,0,8,A4,20,00,00,19,06,00,9B,
6523051,00000050,false,Rx,0,4,00,01,C0,C1,00,00,00,00,
6523302,000001A0,false,Rx,0,8,00,43,00,00,FE,FE,00,17,
6527872,00000280,false,Rx,0,8,01,73,00,00,73,00,2C,00,
6528127,00000488,false,Rx,0,8,B6,00,00,80,A6,00,00,90,
6530350,000001A0,false,Rx,0,8,00,43,00,00,FE,FE,00,18,
6530534,000004A0,false,Rx,0,8,00,00,00,00,00,00,00,00,
6530780,000005A0,false,Rx,0,8,64,01,00,2C,A0,00,00,30,
6533376,00000588,false,Rx,0,8,E9,0A,80,00,63,00,00,00,
6533402,00000320,false,Rx,0,8,02,06,00,01,00,00,00,00,
6537257,000001A0,false,Rx,0,8,00,43,00,00,FE,FE,00,19,
6537969,00000288,false,Rx,0,8,8F,52,00,00,00,56,00,00,
6538224,00000380,false,Rx,0,8,00,4D,00,08,00,00,00,00,
6541887,00000480,false,Rx,0,8,A4,20,00,00,19,06,00,9B,
6543051,00000050,false,Rx,0,4,00,01,D0,D1,00,00,00,00,
6544287,000001A0,false,Rx,0,8,00,43,00,00,FE,FE,00,1A,
6544561,000004A0,false,Rx,0,8,00,00,00,00,00,00,00,00,
6544846,000005A0,false,Rx,0,8,64,01,00,DA,AD,00,00,30,
6547926,00000280,false,Rx,0,8,01,73,00,00,73,00,2C,00,
6548107,00000488,false,Rx,0,8,86,00,00,80,A6,00,00,A0,
6551280,000001A0,false,Rx,0,8,00,43,00,00,FE,FE,00,1B,
6553475,00000588,false,Rx,0,8,E9,0B,80,00,63,00,00,00,
6557337,00000320,false,Rx,0,8,02,06,00,01,00,00,00,00,
6557930,00000288,false,Rx,0,8,8F,52,00,00,00,56,00,00,
6558180,00000380,false,Rx,0,8,00,4D,00,08,00,00,00,00,
6558431,000001A0,false,Rx,0,8,00,43,00,00,FE,FE,00,1C,
6558685,000004A0,false,Rx,0,8,00,00,00,00,00,00,00,00,
6558931,000005A0,false,Rx,0,8,64,01,00,88,BB,00,00,30,
6561905,00000480,false,Rx,0,8,A4,20,00,00,19,06,00,9B,
6563070,00000050,false,Rx,0,4,00,01,E0,E1,00,00,00,00,
6565289,000001A0,false,Rx,0,8,00,43,00,00,FE,FE,00,1D,
6567895,00000280,false,Rx,0,8,01,73,00,00,73,00,2C,00,
6568151,00000488,false,Rx,0,8,96,00,00,80,A6,00,00,B0,
6571890,00000588,false,Rx,0,8,E9,0B,80,00,63,00,00,00,
6573561,000001A0,false,Rx,0,8,00,43,00,00,FE,FE,00,1E,
6573586,000004A0,false,Rx,0,8,00,00,00,00,00,00,00,00,
6573605,000005A0,false,Rx,0,8,64,01,00,36,C9,00,00,30,
6577928,00000288,false,Rx,0,8,DE,52,00,00,00,56,00,00,
6578184,00000380,false,Rx,0,8,00,4D,00,08,00,00,00,00,
6579219,000001A0,false,Rx,0,8,00,43,00,00,FE,FE,00,1F,
6581903,00000480,false,Rx,0,8,ED,20,00,00,19,06,00,D2,
6582231,00000570,false,Rx,0,4,07,00,DE,00,00,00,00,00,
6583169,00000050,false,Rx,0,4,00,01,F0,F1,00,00,00,00,
6583578,00000320,false,Rx,0,8,02,06,00,01,00,00,00,00,
6586323,000001A0,false,Rx,0,8,00,43,00,00,FE,FE,00,10,
6586582,000004A0,false,Rx,0,8,00,00,00,00,00,00,00,00,
6586828,000005A0,false,Rx,0,8,64,01,00,E4,D6,00,00,30,
6587910,00000280,false,Rx,0,8,01,73,00,00,73,00,2C,00,
6588164,00000488,false,Rx,0,8,E6,00,00,80,A6,00,00,C0,
6591906,00000588,false,Rx,0,8,E9,0B,80,00,63,00,00,00,
6593567,000001A0,false,Rx,0,8,00,43,00,00,FE,FE,00,11,
6597941,00000288,false,Rx,0,8,DE,52,00,00,00,56,00,00,
6598149,00000380,false,Rx,0,8,00,4D,00,08,00,00,00,00,
6600294,000001A0,false,Rx,0,8,00,43,00,00,FE,FE,00,12,
6600551,000004A0,false,Rx,0,8,00,00,00,00,00,00,00,00,
6600723,000005A0,false,Rx,0,8,64,01,00,92,E4,00,00,30,
6601881,00000480,false,Rx,0,8,ED,20,00,00,19,06,00,D2,
6603120,00000050,false,Rx,0,4,00,01,00,01,00,00,00,00,
6607309,000001A0,false,Rx,0,8,00,43,00,00,FE,FE,00,13,
6607866,00000320,false,Rx,0,8,02,06,00,01,00,00,00,00,
6608117,00000280,false,Rx,0,8,01,73,00,00,73,00,2C,00,
6608366,00000488,false,Rx,0,8,F6,00,00,80,A6,00,00,D0,
6608620,000005D8,false,Rx,0,8,15,04,00,03,01,00,00,00,
6608865,000005D0,false,Rx,0,6,80,47,51,30,24,41,00,00,
6611920,00000588,false,Rx,0,8,E9,0B,80,00,63,00,00,00,
6614406,000001A0,false,Rx,0,8,00,43,00,00,FE,FE,00,14,
6614599,000004A0,false,Rx,0,8,00,00,00,00,00,00,00,00,
6614845,000005A0,false,Rx,0,8,64,01,00,40,F2,00,00,30,
6617897,00000288,false,Rx,0,8,DE,52,00,00,00,56,00,00,
6618151,00000380,false,Rx,0,8,00,4D,22,08,00,00,00,00,
6621280,000001A0,false,Rx,0,8,00,43,00,00,FE,FE,00,15,
6621914,00000480,false,Rx,0,8,ED,20,00,00,19,06,00,D2,
6623148,00000050,false,Rx,0,4,00,01,10,11,00,00,00,00,
6627872,00000280,false,Rx,0,8,00,73,00,00,73,22,2C,00,
6628127,00000488,false,Rx,0,8,C6,00,00,80,A6,00,00,E0,
6628377,000001A0,false,Rx,0,8,00,43,00,00,FE,FE,00,16,
6628631,000004A0,false,Rx,0,8,00,00,00,00,00,00,00,00,
6628877,000005A0,false,Rx,0,8,64,01,00,EE,FF,00,00,30,
6631930,00000588,false,Rx,0,8,E9,0B,80,00,63,00,00,00,
6633587,00000320,false,Rx,0,8,02,06,00,01,00,00,00,00,
6635450,000001A0,false,Rx,0,8,00,43,00,00,FE,FE,00,17,
6637936,00000288,false,Rx,0,8,DE,52,00,00,00,56,00,00,
6638190,00000380,false,Rx,0,8,00,4D,43,09,00,00,00,00,
6641930,00000480,false,Rx,0,8,ED,20,00,00,19,06,00,D2,
6642260,000001A0,false,Rx,0,8,00,43,00,00,FE,FE,00,18,
6642519,000004A0,false,Rx,0,8,00,00,00,00,00,00,00,00,
6642766,000005A0,false,Rx,0,8,64,01,00,9C,0D,00,00,30,
6643164,00000050,false,Rx,0,4,00,01,20,21,00,00,00,00,
6647909,00000280,false,Rx,0,8,00,72,00,00,72,43,2C,00,
6648114,00000488,false,Rx,0,8,D6,00,00,80,A6,00,00,F0,
6649427,000001A0,false,Rx,0,8,00,43,00,00,FE,FE,00,19,
6651930,00000588,false,Rx,0,8,E9,0B,80,00,63,00,00,00,
6656338,000001A0,false,Rx,0,8,00,43,00,00,FE,FE,00,1A,
6656534,000004A0,false,Rx,0,8,00,00,00,00,00,00,00,00,
6656780,000005A0,false,Rx,0,8,64,01,00,4A,1B,00,00,30,
6657444,00000320,false,Rx,0,8,02,06,00,01,00,00,00,00,
6657839,00000420,false,Rx,0,8,06,78,78,43,00,00,FF,00,
6658356,00000288,false,Rx,0,8,0C,52,00,00,00,56,00,00,
6658375,00000380,false,Rx,0,8,00,4D,6B,C8,00,00,00,00,
6661944,00000480,false,Rx,0,8,19,20,00,00,19,06,00,26,
6663185,00000050,false,Rx,0,4,00,01,30,31,00,00,00,00,
6663436,000001A0,false,Rx,0,8,00,43,00,00,FE,FE,00,1B,
6667858,00000280,false,Rx,0,8,00,72,00,00,72,6B,2C,00,
6668113,00000488,false,Rx,0,8,26,00,00,80,A6,00,00,00,
6670413,000001A0,false,Rx,0,8,00,43,00,00,FE,FE,00,1C,
6670673,000004A0,false,Rx,0,8,00,00,00,00,00,00,00,00,
6670919,000005A0,false,Rx,0,8,64,01,00,F8,28,00,00,30,
6671926,00000588,false,Rx,0,8,E9,0B,80,00,63,00,00,00,
6677315,000001A0,false,Rx,0,8,00,43,00,00,FE,FE,00,1D,
6677886,00000288,false,Rx,0,8,0C,52,00,00,00,56,00,00,
6678141,00000380,false,Rx,0,8,00,4D,92,D5,00,00,00,00,
6681507,00000570,false,Rx,0,4,07,00,DA,00,00,00,00,00,
6681908,00000480,false,Rx,0,8,19,20,00,00,19,06,00,26,
6682841,00000320,false,Rx,0,8,02,06,00,01,00,00,00,00,
6683173,00000050,false,Rx,0,4,00,01,40,41,00,00,00,00,
6684409,000001A0,false,Rx,0,8,00,43,00,00,FE,FE,00,1E,
6684669,000004A0,false,Rx,0,8,00,00,00,00,00,00,00,00,
6684840,000005A0,false,Rx,0,8,64,01,00,A6,36,00,00,30,
6687890,00000280,false,Rx,0,8,00,72,00,00,72,92,2C,00,
6688144,00000488,false,Rx,0,8,36,00,00,80,A6,00,00,10,
6691425,000001A0,false,Rx,0,8,00,43,00,00,FE,FE,00,1F,
6691909,00000588,false,Rx,0,8,E9,0C,80,00,63,00,00,00,
6697962,00000288,false,Rx,0,8,0C,52,00,00,00,56,00,00,
6698167,00000380,false,Rx,0,8,00,4D,B5,E0,00,00,00,00,
6698413,000001A0,false,Rx,0,8,00,43,00,00,FE,FE,00,10,
6698667,000004A0,false,Rx,0,8,00,00,00,00,00,00,00,00,
6698912,000005A0,false,Rx,0,8,64,01,00,54,44,00,00,30,
6701891,00000480,false,Rx,0,8,19,20,00,00,19,06,00,26,
6703208,00000050,false,Rx,0,4,00,01,50,51,00,00,00,00,
6705355,000001A0,false,Rx,0,8,00,43,00,00,FE,FE,00,11,
6707813,00000320,false,Rx,0,8,02,06,00,01,00,00,00,00,
6708067,00000280,false,Rx,0,8,00,72,00,00,72,B5,2C,00,
6708316,00000488,false,Rx,0,8,06,00,00,80,A6,00,00,20,
6708570,000005D8,false,Rx,0,8,15,04,00,03,01,00,00,00,
6708816,000005D0,false,Rx,0,6,80,47,51,30,24,41,00,00,
6709144,00000520,false,Rx,0,8,15,C0,01,2F,80,75,34,04,
6711899,00000588,false,Rx,0,8,E9,0C,80,00,63,00,00,00,
6713863,000001A0,false,Rx,0,8,00,43,00,00,FE,FE,00,12,
6713890,000004A0,false,Rx,0,8,00,00,00,00,00,00,00,00,
6713906,000005A0,false,Rx,0,8,64,01,00,02,52,00,00,30,
6717899,00000288,false,Rx,0,8,0C,52,00,00,00,56,00,00,
6718156,00000380,false,Rx,0,8,00,4D,D4,E0,00,00,00,00,
6719317,000001A0,false,Rx,0,8,00,43,00,00,FE,FE,00,13,
6721920,00000480,false,Rx,0,8,19,20,00,00,19,06,00,26,
6723235,00000050,false,Rx,0,4,00,01,60,61,00,00,00,00,
6726363,000001A0,false,Rx,0,8,00,43,00,00,FE,FE,00,14,
6726618,000004A0,false,Rx,0,8,00,00,00,00,00,00,00,00,
6726864,000005A0,false,Rx,0,8,64,01,00,B0,5F,00,00,30,
6727878,00000280,false,Rx,0,8,00,72,00,00,72,D4,2C,00,
6728133,00000488,false,Rx,0,8,16,00,00,80,A6,00,00,30,
6731873,00000588,false,Rx,0,8,E9,0C,80,00,63,00,00,00,
6733906,00000320,false,Rx,0,8,02,06,00,01,00,00,00,00,
6733930,000001A0,false,Rx,0,8,00,43,00,00,FE,FE,00,15,
6737950,00000288,false,Rx,0,8,75,52,00,00,00,56,00,00,
6738160,00000380,false,Rx,0,8,00,4D,F0,EB,00,00,00,00,
6740384,000001A0,false,Rx,0,8,00,43,00,00,FE,FE,00,16,
6740642,000004A0,false,Rx,0,8,00,00,00,00,00,00,00,00,
6740888,000005A0,false,Rx,0,8,64,01,00,5E,6D,00,00,30,
6741897,00000480,false,Rx,0,8,53,20,00,00,19,06,00,6C,
6743214,00000050,false,Rx,0,4,00,01,70,71,00,00,00,00,
6747333,000001A0,false,Rx,0,8,00,43,00,00,FE,FE,00,17,
6747891,00000280,false,Rx,0,8,00,72,00,00,72,F0,2C,00,
6748144,00000488,false,Rx,0,8,66,00,00,80,A6,00,00,40,
6751894,00000588,false,Rx,0,8,E9,0C,80,00,63,00,00,00,
6754522,000001A0,false,Rx,0,8,00,43,00,00,FE,FE,00,18,
6754700,000004A0,false,Rx,0,8,00,00,00,00,00,00,00,00,
6754946,000005A0,false,Rx,0,8,64,01,00,0C,7B,00,00,30,
6757395,00000320,false,Rx,0,8,02,06,00,01,00,00,00,00,
6757874,00000288,false,Rx,0,8,75,52,00,00,00,56,00,00,
6758125,00000380,false,Rx,0,8,00,4D,FA,0F,01,00,00,00,
6761515,000001A0,false,Rx,0,8,00,43,00,00,FE,FE,00,19,
6761904,00000480,false,Rx,0,8,53,20,00,00,19,06,00,6C,
6763317,00000050,false,Rx,0,4,00,01,80,81,00,00,00,00,
6767962,00000280,false,Rx,0,8,00,72,00,00,72,FA,2C,00,
6768220,00000488,false,Rx,0,8,76,00,00,80,A6,00,00,50,
6768465,000001A0,false,Rx,0,8,00,43,00,00,FE,FE,00,1A,
6768661,000004A0,false,Rx,0,8,00,00,00,00,00,00,00,00,
6768900,000005A0,false,Rx,0,8,64,01,00,BA,88,00,00,30,
6771991,00000588,false,Rx,0,8,E9,0C,80,00,63,00,00,00,
6775591,000001A0,false,Rx,0,8,00,43,00,00,FE,FE,00,1B,
6778044,00000288,false,Rx,0,8,75,52,00,00,00,56,00,00,
6778243,00000380,false,Rx,0,8,00,4D,FA,1F,01,00,00,00,
6781600,00000570,false,Rx,0,4,07,00,DA,00,00,00,00,00,
6782002,00000480,false,Rx,0,8,53,20,00,00,19,06,00,6C,
6782424,000001A0,false,Rx,0,8,00,43,00,00,FE,FE,00,1C,
6782642,000004A0,false,Rx,0,8,00,00,00,00,00,00,00,00,
6782953,00000320,false,Rx,0,8,02,06,00,01,00,00,00,00,
6783167,000005A0,false,Rx,0,8,64,01,00,68,96,00,00,30,
6783406,00000050,false,Rx,0,4,00,01,90,91,00,00,00,00,
6787929,00000280,false,Rx,0,8,00,72,00,00,72,FA,2C,00,
6788181,00000488,false,Rx,0,8,46,00,00,80,A6,00,00,60,
6789603,000001A0,false,Rx,0,8,00,43,00,00,FE,FE,00,1D,
6791962,00000588,false,Rx,0,8,E9,0C,80,00,63,00,00,00,
6796524,000001A0,false,Rx,0,8,00,43,00,00,FE,FE,00,1E,
6796558,000004A0,false,Rx,0,8,00,00,00,00,00,00,00,00,
6796883,000005A0,false,Rx,0,8,64,01,00,16,A4,00,00,30,
6798009,00000288,false,Rx,0,8,75,52,00,00,00,56,00,00,
6798255,00000380,false,Rx,0,8,00,4D,FA,2B,01,00,00,00,
6802028,00000480,false,Rx,0,8,53,20,00,00,19,06,00,6C,
6803351,00000050,false,Rx,0,4,00,01,A0,A1,00,00,00,00,
6803632,000001A0,false,Rx,0,8,00,43,00,00,FE,FE,00,1F,
6807896,00000320,false,Rx,0,8,02,06,00,01,00,00,00,00,
6808108,00000280,false,Rx,0,8,00,72,00,00,72,FA,2C,00,
6808360,00000488,false,Rx,0,8,56,00,00,80,A6,00,00,70,
6808539,000005D8,false,Rx,0,8,15,04,00,03,01,00,00,00,
6808860,000005D0,false,Rx,0,6,80,47,51,30,24,41,00,00,
6810609,000001A0,false,Rx,0,8,00,43,00,00,FE,FE,00,10,
6810892,000004A0,false,Rx,0,8,00,00,00,00,00,00,00,00,
6811137,000005A0,false,Rx,0,8,64,01,00,C4,B1,00,00,30,
6811868,00000588,false,Rx,0,8,E9,0C,80,00,63,00,00,00,
6817449,000001A0,false,Rx,0,8,00,43,00,00,FE,FE,00,11,
6817988,00000288,false,Rx,0,8,8F,52,00,00,00,56,00,00,
6818207,00000380,false,Rx,0,8,00,4D,FA,2B,01,00,00,00,
6821933,00000480,false,Rx,0,8,A4,20,00,00,19,06,00,9B,
6823311,00000050,false,Rx,0,4,00,01,B0,B1,00,00,00,00,
6824596,000001A0,false,Rx,0,8,00,43,00,00,FE,FE,00,12,
6824785,000004A0,false,Rx,0,8,00,00,00,00,00,00,00,00,
6824962,000005A0,false,Rx,0,8,64,01,00,72,BF,00,00,30,
6827991,00000280,false,Rx,0,8,00,72,00,00,72,FA,2C,00,
6828243,00000488,false,Rx,0,8,A6,00,00,80,A6,00,00,80,
6831593,000001A0,false,Rx,0,8,00,43,00,00,FE,FE,00,13,
6831903,00000588,false,Rx,0,8,E9,0D,80,00,63,00,00,00,
6835683,00000320,false,Rx,0,8,02,06,00,01,00,00,00,00,
6837989,00000288,false,Rx,0,8,8F,52,00,00,00,56,00,00,
6838202,00000380,false,Rx,0,8,00,4D,FA,35,01,00,00,00,
6838408,000001A0,false,Rx,0,8,00,43,00,00,FE,FE,00,14,
6838679,000004A0,false,Rx,0,8,00,00,00,00,00,00,00,00,
6838904,000005A0,false,Rx,0,8,64,01,00,20,CD,00,00,30,
6841935,00000480,false,Rx,0,8,A4,20,00,00,19,06,00,9B,
6843363,00000050,false,Rx,0,4,00,01,C0,C1,00,00,00,00,
6845471,000001A0,false,Rx,0,8,00,43,00,00,FE,FE,00,15,
6847960,00000280,false,Rx,0,8,00,72,00,00,72,FA,2C,00,
6848199,00000488,false,Rx,0,8,B6,00,00,80,A6,00,00,90,
6851949,00000588,false,Rx,0,8,E9,0D,80,00,63,00,00,00,
6852626,000001A0,false,Rx,0,8,00,43,00,00,FE,FE,00,16,
6854448,000004A0,false,Rx,0,8,00,00,00,00,00,00,00,00,
6854471,000005A0,false,Rx,0,8,7F,00,00,CE,DA,00,00,30,
6857624,00000320,false,Rx,0,8,02,06,00,01,00,00,00,00,
6857870,00000288,false,Rx,0,8,8F,52,00,00,00,56,00,00,
6858119,00000380,false,Rx,0,8,00,4D,FA,40,01,00,00,00,
6858371,00000420,false,Rx,0,8,06,78,78,43,00,00,FF,00,
6859997,000001A0,false,Rx,0,8,00,42,00,00,FE,FE,00,17,
6861899,00000480,false,Rx,0,8,A4,20,00,00,19,06,00,9B,
6863517,00000050,false,Rx,0,4,00,01,D0,D1,00,00,00,00,
6866964,000001A0,false,Rx,0,8,00,40,00,00,FE,FE,00,18,
6867233,000004A0,false,Rx,0,8,00,00,00,00,00,00,00,00,
6867481,000005A0,false,Rx,0,8,7F,00,00,7C,E8,00,00,30,
6867886,00000280,false,Rx,0,8,00,72,00,00,72,FA,2C,00,
6868137,00000488,false,Rx,0,8,86,00,00,80,A6,00,00,A0,
6871880,00000588,false,Rx,0,8,E9,0D,80,00,63,00,00,00,
6874285,000001A0,false,Rx,0,8,00,40,00,00,FE,FE,00,19,
6877903,00000288,false,Rx,0,8,8F,52,00,00,00,56,00,00,
6878159,00000380,false,Rx,0,8,00,4D,FA,43,01,00,00,00,
6880988,000001A0,false,Rx,0,8,00,40,00,00,FE,FE,00,1A,
6881243,000004A0,false,Rx,0,8,00,00,00,00,00,00,00,00,
6881414,000005A0,false,Rx,0,8,7F,00,00,2A,F6,00,00,30,
6881892,00000480,false,Rx,0,8,A4,20,00,00,19,06,00,9B,
6882448,00000570,false,Rx,0,4,07,00,DA,00,00,00,00,00,
6883385,00000050,false,Rx,0,4,00,01,E0,E1,00,00,00,00,
6883788,00000320,false,Rx,0,8,02,06,00,01,00,00,00,00,
6887903,00000280,false,Rx,0,8,00,72,00,00,72,FA,2C,00,
6888158,000001A0,false,Rx,0,8,00,40,00,00,FE,FE,00,1B,
6888404,00000488,false,Rx,0,8,96,00,00,80,A6,00,00,B0,
6891919,00000588,false,Rx,0,8,E9,0D,80,00,63,00,00,00,
6895166,000001A0,false,Rx,0,8,00,40,00,00,FE,FE,00,1C,
6895390,000004A0,false,Rx,0,8,00,00,00,00,00,00,00,00,
6895524,000005A0,false,Rx,0,8,7F,00,00,D8,03,00,00,30,
6897909,00000288,false,Rx,0,8,DE,52,00,00,00,56,00,00,
6898159,00000380,false,Rx,0,8,00,4D,FA,45,01,00,00,00,
6901894,00000480,false,Rx,0,8,ED,20,00,00,19,06,00,D2,
6902151,000001A0,false,Rx,0,8,00,40,00,00,FE,FE,00,1D,
6903389,00000050,false,Rx,0,4,00,01,F0,F1,00,00,00,00,
6908219,00000280,false,Rx,0,8,00,72,00,00,72,FA,2C,00,
6908243,00000320,false,Rx,0,8,02,06,00,01,00,00,00,00,
6908388,00000488,false,Rx,0,8,E6,00,00,80,A6,00,00,C0,
6908642,000005D8,false,Rx,0,8,15,04,00,03,01,00,00,00,
6908888,000005D0,false,Rx,0,6,80,47,51,30,24,41,00,00,
6909139,000001A0,false,Rx,0,8,00,40,00,00,FE,FE,00,1E,
6909390,000004A0,false,Rx,0,8,00,00,00,00,00,00,00,00,
6909644,00000520,false,Rx,0,8,02,04,01,2F,80,75,34,04,
6909890,000005A0,false,Rx,0,8,7F,00,00,86,11,00,00,30,
6911882,00000588,false,Rx,0,8,E9,0D,80,00,63,00,00,00,
6916029,000001A0,false,Rx,0,8,00,40,00,00,FE,FE,00,1F,
6917865,00000288,false,Rx,0,8,DE,52,00,00,00,56,00,00,
6918127,00000380,false,Rx,0,8,00,4D,FA,45,01,00,00,00,
6921867,00000480,false,Rx,0,8,ED,20,00,00,19,06,00,D2,
6923033,000001A0,false,Rx,0,8,00,40,00,00,FE,FE,00,10,
6923284,000004A0,false,Rx,0,8,00,00,00,00,00,00,00,00,
6923455,00000050,false,Rx,0,4,00,01,00,01,00,00,00,00,
6923708,000005A0,false,Rx,0,8,7F,00,00,34,1F,00,00,30,
6927895,00000280,false,Rx,0,8,00,72,00,00,72,FA,2C,00,
6928151,00000488,false,Rx,0,8,F6,00,00,80,A6,00,00,D0,
6930070,000001A0,false,Rx,0,8,00,40,00,00,FE,FE,00,11,
6931916,00000588,false,Rx,0,8,E9,0D,80,00,63,00,00,00,
6932631,00000320,false,Rx,0,8,02,06,00,01,00,00,00,00,
6937027,000001A0,false,Rx,0,8,00,40,00,00,FE,FE,00,12,
6937225,000004A0,false,Rx,0,8,00,00,00,00,00,00,00,00,
6937471,000005A0,false,Rx,0,8,7F,00,00,E2,2C,00,00,30,
6937876,00000288,false,Rx,0,8,DE,52,00,00,00,56,00,00,
6938130,00000380,false,Rx,0,8,00,4D,FA,46,01,00,00,00,
6941871,00000480,false,Rx,0,8,ED,20,00,00,19,06,00,D2,
6943410,00000050,false,Rx,0,4,00,01,10,11,00,00,00,00,
6944040,000001A0,false,Rx,0,8,00,40,00,00,FE,FE,00,13,
6947855,00000280,false,Rx,0,8,00,72,00,00,72,FA,2C,00,
6948112,00000488,false,Rx,0,8,C6,00,00,80,A6,00,00,E0,
6951096,000001A0,false,Rx,0,8,00,40,00,00,FE,FE,00,14,
6951342,000004A0,false,Rx,0,8,00,00,00,00,00,00,00,00,
6951521,000005A0,false,Rx,0,8,7F,00,00,90,3A,00,00,30,
6951917,00000588,false,Rx,0,8,E9,0D,80,00,63,00,00,00,
6957648,00000320,false,Rx,0,8,02,06,00,01,00,00,00,00,
6957926,00000288,false,Rx,0,8,DE,52,00,00,00,56,00,00,
6958108,000001A0,false,Rx,0,8,00,40,00,00,FE,FE,00,15,
6958359,00000380,false,Rx,0,8,00,4D,FA,48,01,00,00,00,
6961871,00000480,false,Rx,0,8,ED,20,00,00,19,06,00,D2,
6963501,00000050,false,Rx,0,4,00,01,20,21,00,00,00,00,
6965065,000001A0,false,Rx,0,8,00,40,00,00,FE,FE,00,16,
6965317,000004A0,false,Rx,0,8,00,00,00,00,00,00,00,00,
6965572,000005A0,false,Rx,0,8,7F,00,00,3E,48,00,00,30,
6967865,00000280,false,Rx,0,8,00,72,00,00,72,FA,2C,00,
6968120,00000488,false,Rx,0,8,D6,00,00,80,A6,00,00,F0,
6971857,00000588,false,Rx,0,8,E9,0E,80,00,63,00,00,00,
6972113,000001A0,false,Rx,0,8,00,40,00,00,FE,FE,00,17,
6977972,00000288,false,Rx,0,8,0C,52,00,00,00,56,00,00,
6978170,00000380,false,Rx,0,8,00,4D,FA,48,01,00,00,00,
6979026,000001A0,false,Rx,0,8,00,40,00,00,FE,FE,00,18,
6979278,000004A0,false,Rx,0,8,00,00,00,00,00,00,00,00,
6979534,000005A0,false,Rx,0,8,7F,00,00,EC,55,00,00,30,
6981605,00000570,false,Rx,0,4,07,00,DA,00,00,00,00,00,
6981852,00000480,false,Rx,0,8,19,20,00,00,19,06,00,26,
6982939,00000320,false,Rx,0,8,02,06,00,01,00,00,00,00,
6983496,00000050,false,Rx,0,4,00,01,30,31,00,00,00,00,
6986021,000001A0,false,Rx,0,8,00,40,00,00,FE,FE,00,19,
6987867,00000280,false,Rx,0,8,00,72,00,00,72,FA,2C,00,
6988120,00000488,false,Rx,0,8,26,00,00,80,A6,00,00,00,
6991862,00000588,false,Rx,0,8,E9,0E,80,00,63,00,00,00,
6994523,000001A0,false,Rx,0,8,00,40,00,00,FE,FE,00,1A,
6994545,000004A0,false,Rx,0,8,00,00,00,00,00,00,00,00,
6994561,000005A0,false,Rx,0,8,7F,00,00,9A,63,00,00,30,
6997927,00000288,false,Rx,0,8,0C,52,00,00,00,56,00,00,
6998102,00000380,false,Rx,0,8,00,4D,FA,48,01,00,00,00,
7000022,000001A0,false,Rx,0,8,00,40,00,00,FE,FE,00,1B,
7001903,00000480,false,Rx,0,8,19,20,00,00,19,06,00,26,
7003528,00000050,false,Rx,0,4,00,01,40,41,00,00,00,00,
7007035,000001A0,false,Rx,0,8,00,40,00,00,FE,FE,00,1C,
7007283,000004A0,false,Rx,0,8,00,00,00,00,00,00,00,00,
7007537,000005A0,false,Rx,0,8,7F,00,00,48,71,00,00,30,
7007858,00000280,false,Rx,0,8,00,72,00,00,72,FA,2C,00,
7008111,00000320,false,Rx,0,8,02,06,00,01,00,00,00,00,
7008359,00000488,false,Rx,0,8,36,00,00,80,A6,00,00,10,
7008614,000005D8,false,Rx,0,8,15,04,00,03,01,00,00,00,
7008935,000005D0,false,Rx,0,6,80,47,51,30,24,41,00,00,
7011913,00000588,false,Rx,0,8,E9,0E,80,00,63,00,00,00,
7014644,000001A0,false,Rx,0,8,00,40,00,00,FE,FE,00,1D,
7017957,00000288,false,Rx,0,8,0C,52,00,00,00,56,00,00,
7018093,00000380,false,Rx,0,8,00,4D,FA,48,01,00,00,00,
7021073,000001A0,false,Rx,0,8,00,40,00,00,FE,FE,00,1E,
7021249,000004A0,false,Rx,0,8,00,00,00,00,00,00,00,00,
7021504,000005A0,false,Rx,0,8,7F,00,00,F6,7E,00,00,30,
7021900,00000480,false,Rx,0,8,19,20,00,00,19,06,00,26,
7023516,00000050,false,Rx,0,4,00,01,50,51,00,00,00,00,
7027858,00000280,false,Rx,0,8,00,72,00,00,72,FA,2C,00,
7028113,000001A0,false,Rx,0,8,00,40,00,00,FE,FE,00,1F,
7028364,00000488,false,Rx,0,8,06,00,00,80,A6,00,00,20,
7031873,00000588,false,Rx,0,8,E9,0E,80,00,63,00,00,00,
7032585,00000320,false,Rx,0,8,02,06,00,01,00,00,00,00,
7035172,000001A0,false,Rx,0,8,00,40,00,00,FE,FE,00,10,
7035348,000004A0,false,Rx,0,8,00,00,00,00,00,00,00,00,
7035601,000005A0,false,Rx,0,8,7F,00,00,A4,8C,00,00,30,
7037906,00000288,false,Rx,0,8,0C,52,00,00,00,56,00,00,
7038161,00000380,false,Rx,0,8,00,4D,FA,48,01,00,00,00,
7041902,00000480,false,Rx,0,8,19,20,00,00,19,06,00,26,
7042159,000001A0,false,Rx,0,8,00,40,00,00,FE,FE,00,11,
7043552,00000050,false,Rx,0,4,00,01,60,61,00,00,00,00,
7047894,00000280,false,Rx,0,8,00,72,00,00,72,FA,2C,00,
7048150,00000488,false,Rx,0,8,16,00,00,80,A6,00,00,30,
7049161,000001A0,false,Rx,0,8,00,40,00,00,FE,FE,00,12,
7049407,000004A0,false,Rx,0,8,00,00,00,00,00,00,00,00,
7049661,000005A0,false,Rx,0,8,7F,00,00,52,9A,00,00,30,
7051924,00000588,false,Rx,0,8,E9,0E,80,00,63,00,00,00,
7056070,000001A0,false,Rx,0,8,00,40,00,00,FE,FE,00,13,
7057320,00000320,false,Rx,0,8,02,06,00,01,00,00,00,00,
7057703,00000420,false,Rx,0,8,06,78,78,43,00,00,FF,00,
7057895,00000288,false,Rx,0,8,75,52,00,00,00,56,00,00,
7058148,00000380,false,Rx,0,8,00,4D,FA,49,01,00,00,00,
7061863,00000480,false,Rx,0,8,53,20,00,00,19,06,00,6C,
7063112,000001A0,false,Rx,0,8,00,40,00,00,FE,FE,00,14,
7063364,000004A0,false,Rx,0,8,00,00,00,00,00,00,00,00,
7063618,000005A0,false,Rx,0,8,7F,00,00,00,A8,00,00,30,
7063789,00000050,false,Rx,0,4,00,01,70,71,00,00,00,00,
7067902,00000280,false,Rx,0,8,00,72,00,00,72,FA,2C,00,
7068081,00000488,false,Rx,0,8,66,00,00,80,A6,00,00,40,
7070153,000001A0,false,Rx,0,8,00,40,00,00,FE,FE,00,15,
7071922,00000588,false,Rx,0,8,E9,0E,80,00,63,00,00,00,
7077093,000001A0,false,Rx,0,8,00,40,00,00,FE,FE,00,16,
7077296,000004A0,false,Rx,0,8,00,00,00,00,00,00,00,00,
7077550,000005A0,false,Rx,0,8,7F,00,00,AE,B5,00,00,30,
7077871,00000288,false,Rx,0,8,75,52,00,00,00,56,00,00,
7078127,00000380,false,Rx,0,8,00,4D,FA,49,01,00,00,00,
7081896,00000480,false,Rx,0,8,53,20,00,00,19,06,00,6C,
7082378,00000570,false,Rx,0,4,07,00,DA,00,00,00,00,00,
7083697,00000320,false,Rx,0,8,02,06,00,01,00,00,00,00,
7083872,00000050,false,Rx,0,4,00,01,80,81,00,00,00,00,
7084124,000001A0,false,Rx,0,8,00,40,00,00,FE,FE,00,17,
7087862,00000280,false,Rx,0,8,00,72,00,00,72,FA,2C,00,
7088117,00000488,false,Rx,0,8,76,00,00,80,A6,00,00,50,
7091175,000001A0,false,Rx,0,8,00,40,00,00,FE,FE,00,18,
7091424,000004A0,false,Rx,0,8,00,00,00,00,00,00,00,00,
7091678,000005A0,false,Rx,0,8,7F,00,00,5C,C3,00,00,30,
7091924,00000588,false,Rx,0,8,E9,0E,80,00,63,00,00,00,
7097911,00000288,false,Rx,0,8,75,52,00,00,00,56,00,00,
7098114,000001A0,false,Rx,0,8,00,40,00,00,FE,FE,00,19,
7098361,00000380,false,Rx,0,8,00,4D,FA,49,01,00,00,00,
7101873,00000480,false,Rx,0,8,53,20,00,00,19,06,00,6C,
7103573,00000050,false,Rx,0,4,00,01,90,91,00,00,00,00,
7105110,000001A0,false,Rx,0,8,00,40,00,00,FE,FE,00,1A,
7105357,000004A0,false,Rx,0,8,00,00,00,00,00,00,00,00,
7105611,000005A0,false,Rx,0,8,7F,00,00,0A,D1,00,00,30,
7107906,00000280,false,Rx,0,8,00,72,00,00,72,FA,2C,00,
7108160,00000320,false,Rx,0,8,00,06,2D,01,00,00,00,00,
7108332,00000488,false,Rx,0,8,46,00,00,80,A6,00,00,60,
7108586,000005D8,false,Rx,0,8,15,04,00,03,01,00,00,00,
7108907,000005D0,false,Rx,0,6,80,47,51,30,24,41,00,00,
7109235,00000520,false,Rx,0,8,51,67,01,2F,80,75,34,04,
7111913,00000588,false,Rx,0,8,E9,0F,80,00,63,00,00,00,
7112167,000001A0,false,Rx,0,8,00,40,00,00,FE,FE,00,1B,
7117904,00000288,false,Rx,0,8,75,52,00,00,00,56,00,00,
7118099,00000380,false,Rx,0,8,00,4D,FA,49,01,00,00,00,
7119113,000001A0,false,Rx,0,8,00,40,00,00,FE,FE,00,1C,
7119361,000004A0,false,Rx,0,8,00,00,00,00,00,00,00,00,
7119614,000005A0,false,Rx,0,8,7F,00,00,B8,DE,00,00,30,
7121907,00000480,false,Rx,0,8,53,20,00,00,19,06,00,6C,
7123606,00000050,false,Rx,0,4,00,01,A0,A1,00,00,00,00,
7126130,000001A0,false,Rx,0,8,00,40,00,00,FE,FE,00,1D,
7127900,00000280,false,Rx,0,8,00,72,00,00,72,FA,2C,00,
7128082,00000488,false,Rx,0,8,56,00,00,80,A6,00,00,70,
7131894,00000588,false,Rx,0,8,E9,0F,80,00,63,00,00,00,
7132530,00000320,false,Rx,0,8,00,06,2D,01,00,00,00,00,
7133158,000001A0,false,Rx,0,8,00,40,00,00,FE,FE,00,1E,
7134907,000004A0,false,Rx,0,8,00,00,00,00,00,00,00,00,
7134930,000005A0,false,Rx,0,8,7F,00,00,66,EC,00,00,30,
7137936,00000288,false,Rx,0,8,8F,52,00,00,00,56,00,00,
7138139,00000380,false,Rx,0,8,00,4D,FA,49,01,00,00,00,
7140064,000001A0,false,Rx,0,8,00,40,00,00,FE,FE,00,1F,
7141908,00000480,false,Rx,0,8,A4,20,00,00,19,06,00,9B,
7143677,00000050,false,Rx,0,4,00,01,B0,B1,00,00,00,00,
7147113,000001A0,false,Rx,0,8,00,40,00,00,FE,FE,00,10,
7147359,000004A0,false,Rx,0,8,00,00,00,00,00,00,00,00,
7147613,000005A0,false,Rx,0,8,7F,00,00,14,FA,00,00,30,
7147859,00000280,false,Rx,0,8,00,72,00,00,72,FA,2C,00,
7148115,00000488,false,Rx,0,8,A6,00,00,80,A6,00,00,80,
7151855,00000588,false,Rx,0,8,E9,0F,80,00,63,00,00,00,
7154931,000001A0,false,Rx,0,8,00,40,00,00,FE,FE,00,11,
7157285,00000320,false,Rx,0,8,00,06,2D,01,00,00,00,00,
7158032,00000288,false,Rx,0,8,8F,52,00,00,00,56,00,00,
7158204,00000380,false,Rx,0,8,00,4D,FA,49,01,00,00,00,
7161181,000001A0,false,Rx,0,8,00,40,00,00,FE,FE,00,12,
7161385,000004A0,false,Rx,0,8,00,00,00,00,00,00,00,00,
7161640,000005A0,false,Rx,0,8,7F,00,00,C2,07,00,00,30,
7161886,00000480,false,Rx,0,8,A4,20,00,00,19,06,00,9B,
7163662,00000050,false,Rx,0,4,00,01,C0,C1,00,00,00,00,
7167858,00000280,false,Rx,0,8,00,72,00,00,72,FA,2C,00,
7168113,00000488,false,Rx,0,8,B6,00,00,80,A6,00,00,90,
7168359,000001A0,false,Rx,0,8,00,40,00,00,FE,FE,00,13,
7171873,00000588,false,Rx,0,8,E9,0F,80,00,63,00,00,00,
7175204,000001A0,false,Rx,0,8,00,40,00,00,FE,FE,00,14,
7175468,000004A0,false,Rx,0,8,00,00,00,00,00,00,00,00,
7175647,000005A0,false,Rx,0,8,7F,00,00,70,15,00,00,30,
7177867,00000288,false,Rx,0,8,8F,52,00,00,00,56,00,00,
7178122,00000380,false,Rx,0,8,00,4D,FA,49,01,00,00,00,
7181475,00000570,false,Rx,0,4,07,00,DA,00,00,00,00,00,
7181884,00000480,false,Rx,0,8,A4,20,00,00,19,06,00,9B,
7182133,000001A0,false,Rx,0,8,00,40,00,00,FE,FE,00,15,
7182842,00000320,false,Rx,0,8,00,06,2D,01,00,00,00,00,
7183622,00000050,false,Rx,0,4,00,01,D0,D1,00,00,00,00,
7187846,00000280,false,Rx,0,8,00,72,00,00,72,FA,2C,00,
7188100,00000488,false,Rx,0,8,86,00,00,80,A6,00,00,A0,
7189263,000001A0,false,Rx,0,8,00,40,00,00,FE,FE,00,16,
7189522,000004A0,false,Rx,0,8,00,00,00,00,00,00,00,00,
7189768,000005A0,false,Rx,0,8,7F,00,00,1E,23,00,00,30,
7191910,00000588,false,Rx,0,8,E9,0F,80,00,63,00,00,00,
7196180,000001A0,false,Rx,0,8,00,40,00,00,FE,FE,00,17,
7197881,00000288,false,Rx,0,8,8F,52,00,00,00,56,00,00,
7198132,00000380,false,Rx,0,8,00,4D,FA,49,01,00,00,00,
7201873,00000480,false,Rx,0,8,A4,20,00,00,19,06,00,9B,
7203186,000001A0,false,Rx,0,8,00,40,00,00,FE,FE,00,18,
7203431,000004A0,false,Rx,0,8,00,00,00,00,00,00,00,00,
7203686,000005A0,false,Rx,0,8,7F,00,00,CC,30,00,00,30,
7203857,00000050,false,Rx,0,4,00,01,E0,E1,00,00,00,00,
7207897,00000280,false,Rx,0,8,00,72,00,00,72,FA,2C,00,
7208150,00000320,false,Rx,0,8,00,06,2D,01,00,00,00,00,
7208321,00000488,false,Rx,0,8,96,00,00,80,A6,00,00,B0,
7208574,000005D8,false,Rx,0,8,15,04,00,03,01,00,00,00,
7208895,000005D0,false,Rx,0,6,80,47,51,30,24,41,00,00,
7210283,000001A0,false,Rx,0,8,00,40,00,00,FE,FE,00,19,
7211901,00000588,false,Rx,0,8,E9,0F,80,00,63,00,00,00,
7217159,000001A0,false,Rx,0,8,00,40,00,00,FE,FE,00,1A,
7217348,000004A0,false,Rx,0,8,00,00,00,00,00,00,00,00,
7217603,000005A0,false,Rx,0,8,7F,00,00,7A,3E,00,00,30,
7217850,00000288,false,Rx,0,8,DE,52,00,00,00,56,00,00,
7218102,00000380,false,Rx,0,8,00,4D,FA,49,01,00,00,00,
7221917,00000480,false,Rx,0,8,ED,20,00,00,19,06,00,D2,
7223688,00000050,false,Rx,0,4,00,01,F0,F1,00,00,00,00,
7224169,000001A0,false,Rx,0,8,00,40,00,00,FE,FE,00,1B,
7227835,00000280,false,Rx,0,8,00,72,00,00,72,FA,2C,00,
7228088,00000488,false,Rx,0,8,E6,00,00,80,A6,00,00,C0,
7231223,000001A0,false,Rx,0,8,00,40,00,00,FE,FE,00,1C,
7231475,000004A0,false,Rx,0,8,00,00,00,00,00,00,00,00,
7231729,000005A0,false,Rx,0,8,7F,00,00,28,4C,00,00,30,
7231975,00000588,false,Rx,0,8,E9,0F,80,00,63,00,00,00,
7232608,00000320,false,Rx,0,8,00,06,2D,01,00,00,00,00,
7237939,00000288,false,Rx,0,8,DE,52,00,00,00,56,00,00,
7238119,00000380,false,Rx,0,8,00,4D,FA,49,01,00,00,00,
7238371,000001A0,false,Rx,0,8,00,40,00,00,FE,FE,00,1D,
7241891,00000480,false,Rx,0,8,ED,20,00,00,19,06,00,D2,
7243696,00000050,false,Rx,0,4,00,01,00,01,00,00,00,00,
7245237,000001A0,false,Rx,0,8,00,40,00,00,FE,FE,00,1E,
7245496,000004A0,false,Rx,0,8,00,00,00,00,00,00,00,00,
7245742,000005A0,false,Rx,0,8,7F,00,00,D6,59,00,00,30,
7247885,00000280,false,Rx,0,8,00,72,00,00,72,FA,2C,00,
7248139,00000488,false,Rx,0,8,F6,00,00,80,A6,00,00,D0,
7251879,00000588,false,Rx,0,8,E9,0F,80,00,63,00,00,00,
7252208,000001A0,false,Rx,0,8,00,40,00,00,FE,FE,00,1F,
7257470,00000320,false,Rx,0,8,00,06,2D,01,00,00,00,00,
7257729,00000420,false,Rx,0,8,06,78,78,43,00,00,FF,00,
7257975,00000288,false,Rx,0,8,DE,52,00,00,00,56,00,00,
7258231,00000380,false,Rx,0,8,00,4D,FA,49,01,00,00,00,
7259168,000001A0,false,Rx,0,8,00,40,00,00,FE,FE,00,10,
7259414,000004A0,false,Rx,0,8,00,00,00,00,00,00,00,00,
7259668,000005A0,false,Rx,0,8,7F,00,00,84,67,00,00,30,
7261928,00000480,false,Rx,0,8,ED,20,00,00,19,06,00,D2,
7263706,00000050,false,Rx,0,4,00,01,10,11,00,00,00,00,
7266217,000001A0,false,Rx,0,8,00,40,00,00,FE,FE,00,11,
7267838,00000280,false,Rx,0,8,00,72,00,00,72,FA,2C,00,
7268095,00000488,false,Rx,0,8,C6,00,00,80,A6,00,00,E0,
7271910,00000588,false,Rx,0,8,E9,10,80,00,63,00,00,00,
7273223,000001A0,false,Rx,0,8,00,40,00,00,FE,FE,00,12,
7273473,000004A0,false,Rx,0,8,00,00,00,00,00,00,00,00,
7275045,000005A0,false,Rx,0,8,7F,00,00,32,75,00,00,30,
7277932,00000288,false,Rx,0,8,DE,52,00,00,00,56,00,00,
7278109,00000380,false,Rx,0,8,00,4D,FA,49,01,00,00,00,
7280183,000001A0,false,Rx,0,8,00,40,00,00,FE,FE,00,13,
7281420,00000570,false,Rx,0,4,07,00,DA,00,00,00,00,00,
7281899,00000480,false,Rx,0,8,ED,20,00,00,19,06,00,D2,
7282761,00000320,false,Rx,0,8,00,06,2D,01,00,00,00,00,
7283772,00000050,false,Rx,0,4,00,01,20,21,00,00,00,00,
7287208,000001A0,false,Rx,0,8,00,40,00,00,FE,FE,00,14,
7287454,000004A0,false,Rx,0,8,00,00,00,00,00,00,00,00,
7287708,000005A0,false,Rx,0,8,7F,00,00,E0,82,00,00,30,
7287954,00000280,false,Rx,0,8,00,72,00,00,72,FA,2C,00,
7288207,00000488,false,Rx,0,8,D6,00,00,80,A6,00,00,F0,
7291872,00000588,false,Rx,0,8,E9,10,80,00,63,00,00,00,
7295093,000001A0,false,Rx,0,8,00,40,00,00,FE,FE,00,15,
7297915,00000288,false,Rx,0,8,0C,52,00,00,00,56,00,00,
7298098,00000380,false,Rx,0,8,00,4D,FA,49,01,00,00,00,
7301223,000001A0,false,Rx,0,8,00,40,00,00,FE,FE,00,16,
7301474,000004A0,false,Rx,0,8,00,00,00,00,00,00,00,00,
7301728,000005A0,false,Rx,0,8,7F,00,00,8E,90,00,00,30,
7301899,00000480,false,Rx,0,8,19,20,00,00,19,06,00,26,
7303745,00000050,false,Rx,0,4,00,01,30,31,00,00,00,00,
7304000,00000580,false,Rx,0,8,02,00,00,13,19,4D,44,13,
7307900,00000280,false,Rx,0,8,00,72,00,00,72,FA,2C,00,
7308120,00000320,false,Rx,0,8,00,06,2D,01,00,00,00,00,
7308372,000001A0,false,Rx,0,8,00,40,00,00,FE,FE,00,17,
7308625,00000488,false,Rx,0,8,26,00,00,80,A6,00,00,00,
7308871,000005D8,false,Rx,0,8,15,04,00,03,01,00,00,00,
7309122,000005D0,false,Rx,0,6,80,47,51,30,24,41,00,00,
7309448,00000520,false,Rx,0,8,0C,88,01,2F,80,75,34,04,
7311897,00000588,false,Rx,0,8,E9,10,80,00,63,00,00,00,
7315396,000001A0,false,Rx,0,8,00,40,00,00,FE,FE,00,18,
7315582,000004A0,false,Rx,0,8,00,00,00,00,00,00,00,00,
7315828,000005A0,false,Rx,0,8,7F,00,00,3C,9E,00,00,30,
7317902,00000288,false,Rx,0,8,0C,52,00,00,00,56,00,00,
7318078,00000380,false,Rx,0,8,00,4D,FA,49,01,00,00,00,
7321931,00000480,false,Rx,0,8,19,20,00,00,19,06,00,26,
7322215,000001A0,false,Rx,0,8,00,40,00,00,FE,FE,00,19,
7323761,00000050,false,Rx,0,4,00,01,40,41,00,00,00,00,
7327879,00000280,false,Rx,0,8,00,72,00,00,72,FA,2C,00,
7328135,00000488,false,Rx,0,8,36,00,00,80,A6,00,00,10,
7329299,000001A0,false,Rx,0,8,00,40,00,00,FE,FE,00,1A,
7329554,000004A0,false,Rx,0,8,00,00,00,00,00,00,00,00,
7329800,000005A0,false,Rx,0,8,7F,00,00,EA,AB,00,00,30,
7331862,00000588,false,Rx,0,8,E9,10,80,00,63,00,00,00,
7332955,00000320,false,Rx,0,8,00,06,2D,01,00,00,00,00,
7336288,000001A0,false,Rx,0,8,00,40,00,00,FE,FE,00,1B,
7337853,00000288,false,Rx,0,8,0C,52,00,00,00,56,00,00,
7338104,00000380,false,Rx,0,8,00,4D,FA,49,01,00,00,00,
7341842,00000480,false,Rx,0,8,19,20,00,00,19,06,00,26,
7343235,000001A0,false,Rx,0,8,00,40,00,00,FE,FE,00,1C,
7343481,000004A0,false,Rx,0,8,00,00,00,00,00,00,00,00,
7343735,000005A0,false,Rx,0,8,7F,00,00,98,B9,00,00,30,
7343906,00000050,false,Rx,0,4,00,01,50,51,00,00,00,00,
7347873,00000280,false,Rx,0,8,00,72,00,00,72,FA,2C,00,
7348121,00000488,false,Rx,0,8,06,00,00,80,A6,00,00,20,
7350340,000001A0,false,Rx,0,8,00,40,00,00,FE,FE,00,1D,
7351884,00000588,false,Rx,0,8,E9,10,80,00,63,00,00,00,
7357274,000001A0,false,Rx,0,8,00,40,00,00,FE,FE,00,1E,
7357475,000004A0,false,Rx,0,8,00,00,00,00,00,00,00,00,
7357657,000005A0,false,Rx,0,8,7F,00,00,46,C7,00,00,30,
7357905,00000288,false,Rx,0,8,0C,52,00,00,00,56,00,00,
7358161,00000320,false,Rx,0,8,00,06,2D,01,00,00,00,00,
7358406,00000380,false,Rx,0,8,00,4D,FA,49,01,00,00,00,
7361844,00000480,false,Rx,0,8,19,20,00,00,19,06,00,26,
7363842,00000050,false,Rx,0,4,00,01,60,61,00,00,00,00,
7364286,000001A0,false,Rx,0,8,00,40,00,00,FE,FE,00,1F,
7367915,00000280,false,Rx,0,8,00,72,00,00,72,FA,2C,00,
7368102,00000488,false,Rx,0,8,16,00,00,80,A6,00,00,30,
7371309,000001A0,false,Rx,0,8,00,40,00,00,FE,FE,00,10,
7371565,000004A0,false,Rx,0,8,00,00,00,00,00,00,00,00,
7371811,000005A0,false,Rx,0,8,7F,00,00,F4,D4,00,00,30,
7372061,00000588,false,Rx,0,8,E9,10,80,00,63,00,00,00,
7377949,00000288,false,Rx,0,8,75,52,00,00,00,56,00,00,
7378160,00000380,false,Rx,0,8,00,4D,FA,49,01,00,00,00,
7378331,000001A0,false,Rx,0,8,00,40,00,00,FE,FE,00,11,
7381842,00000480,false,Rx,0,8,53,20,00,00,19,06,00,6C,
7382555,00000570,false,Rx,0,4,07,00,DA,00,00,00,00,00,
7383867,00000320,false,Rx,0,8,00,06,2D,01,00,00,00,00,
7384047,00000050,false,Rx,0,4,00,01,70,71,00,00,00,00,
7385283,000001A0,false,Rx,0,8,00,40,00,00,FE,FE,00,12,
7385543,000004A0,false,Rx,0,8,00,00,00,00,00,00,00,00,
7385789,000005A0,false,Rx,0,8,7F,00,00,A2,E2,00,00,30,
7387855,00000280,false,Rx,0,8,00,72,00,00,72,FA,2C,00,
7388110,00000488,false,Rx,0,8,66,00,00,80,A6,00,00,40,
7391847,00000588,false,Rx,0,8,E9,10,80,00,63,00,00,00,
7392327,000001A0,false,Rx,0,8,00,40,00,00,FE,FE,00,13,
7397911,00000288,false,Rx,0,8,75,52,00,00,00,56,00,00,
7398117,00000380,false,Rx,0,8,00,4D,FA,49,01,00,00,00,
7399282,000001A0,false,Rx,0,8,00,40,00,00,FE,FE,00,14,
7399535,000004A0,false,Rx,0,8,00,00,00,00,00,00,00,00,
7399707,000005A0,false,Rx,0,8,7F,00,00,50,F0,00,00,30,
7401856,00000480,false,Rx,0,8,53,20,00,00,19,06,00,6C,
7403883,00000050,false,Rx,0,4,00,01,80,81,00,00,00,00,
7406265,000001A0,false,Rx,0,8,00,40,00,00,FE,FE,00,15,
7407887,00000280,false,Rx,0,8,00,72,00,00,72,FA,2C,00,
7408063,00000488,false,Rx,0,8,76,00,00,80,A6,00,00,50,
7408999,00000320,false,Rx,0,8,00,06,2D,01,00,00,00,00,
7409321,000005D8,false,Rx,0,8,15,04,00,03,01,00,00,00,
7409574,000005D0,false,Rx,0,6,80,47,51,30,24,41,00,00,
7411873,00000588,false,Rx,0,8,E9,10,80,00,63,00,00,00,
7413412,000001A0,false,Rx,0,8,00,40,00,00,FE,FE,00,16,
7413670,000004A0,false,Rx,0,8,00,00,00,00,00,00,00,00,
7413900,000005A0,false,Rx,0,8,7F,00,00,FE,FD,00,00,30,
7417880,00000288,false,Rx,0,8,75,52,00,00,00,56,00,00,
7418076,00000380,false,Rx,0,8,00,4E,FA,49,01,00,00,00,
7420239,000001A0,false,Rx,0,8,00,40,00,00,FE,FE,00,17,
7421867,00000480,false,Rx,0,8,53,20,00,00,19,06,00,6C,
7423907,00000050,false,Rx,0,4,00,01,90,91,00,00,00,00,
7427275,000001A0,false,Rx,0,8,00,40,00,00,FE,FE,00,18,
7427532,000004A0,false,Rx,0,8,00,00,00,00,00,00,00,00,
7427777,000005A0,false,Rx,0,8,7F,00,00,AC,0B,00,00,30,
7428027,00000280,false,Rx,0,8,00,72,00,00,72,FA,2C,00,
7428296,00000488,false,Rx,0,8,46,00,00,80,A6,00,00,60,
7431940,00000588,false,Rx,0,8,E9,11,80,00,63,00,00,00,
7433515,00000320,false,Rx,0,8,00,06,2D,01,00,00,00,00,
7435574,000001A0,false,Rx,0,8,00,40,00,00,FE,FE,00,19,
7437923,00000288,false,Rx,0,8,75,52,00,00,00,56,00,00,
7438104,00000380,false,Rx,0,8,00,4E,FA,49,01,00,00,00,
7441312,000001A0,false,Rx,0,8,00,40,00,00,FE,FE,00,1A,
7441567,000004A0,false,Rx,0,8,00,00,00,00,00,00,00,00,
7441738,000005A0,false,Rx,0,8,7F,00,00,5A,19,00,00,30,
7441984,00000480,false,Rx,0,8,53,20,00,00,19,06,00,6C,
7443905,00000050,false,Rx,0,4,00,01,A0,A1,00,00,00,00,
7447873,00000280,false,Rx,0,8,00,72,00,00,72,FA,2C,00,
7448129,00000488,false,Rx,0,8,56,00,00,80,A6,00,00,70,
7448376,000001A0,false,Rx,0,8,00,40,00,00,FE,FE,00,1B,
7451890,00000588,false,Rx,0,8,E9,11,80,00,63,00,00,00,
7455636,000001A0,false,Rx,0,8,00,40,00,00,FE,FE,00,1C,
7455659,000004A0,false,Rx,0,8,00,00,00,00,00,00,00,00,
7455830,000005A0,false,Rx,0,8,7F,00,00,08,27,00,00,30,
7457902,00000288,false,Rx,0,8,8F,52,00,00,00,56,00,00,
7458082,00000380,false,Rx,0,8,00,4E,FA,49,01,00,00,00,
7458409,00000320,false,Rx,0,8,00,06,2D,01,00,00,00,00,
7458668,00000420,false,Rx,0,8,06,78,78,43,00,00,FF,00,
7461873,00000480,false,Rx,0,8,A4,20,00,00,19,06,00,9B,
7462279,000001A0,false,Rx,0,8,00,40,00,00,FE,FE,00,1D,
7463901,00000050,false,Rx,0,4,00,01,B0,B1,00,00,00,00,
7467875,00000280,false,Rx,0,8,00,72,00,00,72,FA,2C,00,
7468082,00000488,false,Rx,0,8,A6,00,00,80,A6,00,00,80,
7469397,000001A0,false,Rx,0,8,00,40,00,00,FE,FE,00,1E,
7469655,000004A0,false,Rx,0,8,00,00,00,00,00,00,00,00,
7469901,000005A0,false,Rx,0,8,7F,00,00,B6,34,00,00,30,
7471895,00000588,false,Rx,0,8,E9,11,80,00,63,00,00,00,
7476321,000001A0,false,Rx,0,8,00,40,00,00,FE,FE,00,1F,
7477873,00000288,false,Rx,0,8,8F,52,00,00,00,56,00,00,
7478127,00000380,false,Rx,0,8,00,4E,FA,49,01,00,00,00,
7481867,00000480,false,Rx,0,8,A4,20,00,00,19,06,00,9B,
7482578,00000570,false,Rx,0,4,07,00,DA,00,00,00,00,00,
7483358,000001A0,false,Rx,0,8,00,40,00,00,FE,FE,00,10,
7483542,000004A0,false,Rx,0,8,00,00,00,00,00,00,00,00,
7483788,000005A0,false,Rx,0,8,7F,00,00,64,42,00,00,30,
7484188,00000320,false,Rx,0,8,00,06,2D,01,00,00,00,00,
7484364,00000050,false,Rx,0,4,00,01,C0,C1,00,00,00,00,
7487873,00000280,false,Rx,0,8,00,72,00,00,72,FA,2C,00,
7488127,00000488,false,Rx,0,8,B6,00,00,80,A6,00,00,90,
7490425,000001A0,false,Rx,0,8,00,40,00,00,FE,FE,00,11,
7491897,00000588,false,Rx,0,8,E9,11,80,00,63,00,00,00,
7508147,00001000,true,Rx,0,8,00,00,02,8B,00,00,B5,45,
7509574,00001001,true,Rx,0,8,00,00,00,00,00,00,00,00,
7497306,000001A0,false,Rx,0,8,00,40,00,00,FE,FE,00,12,
7497564,000004A0,false,Rx,0,8,00,00,00,00,00,00,00,00,
7497736,000005A0,false,Rx,0,8,7F,00,00,12,50,00,00,30,
7498020,00000288,false,Rx,0,8,8F,52,00,00,00,56,00,00,
7498279,00000380,false,Rx,0,8,00,4E,FA,49,01,00,00,00,
7501864,00000480,false,Rx,0,8,A4,20,00,00,19,06,00,9B,
7503965,00000050,false,Rx,0,4,00,01,D0,D1,00,00,00,00,
7504368,000001A0,false,Rx,0,8,00,40,00,00,FE,FE,00,13,
7511180,00000280,false,Rx,0,8,00,72,00,00,72,FA,2C,00,
7511203,00000488,false,Rx,0,8,86,00,00,80,A6,00,00,A0,
7511219,00000320,false,Rx,0,8,00,06,2D,01,00,00,00,00,
7511235,000005D8,false,Rx,0,8,15,04,00,03,01,00,00,00,
7511251,000005D0,false,Rx,0,6,80,47,51,30,24,41,00,00,
7511267,00000520,false,Rx,0,8,15,C0,01,2F,80,75,34,04,
7511484,000001A0,false,Rx,0,8,00,40,00,00,FE,FE,00,14,
7511760,000004A0,false,Rx,0,8,00,00,00,00,00,00,00,00,
7512028,00000588,false,Rx,0,8,E9,11,80,00,63,00,00,00,
7512263,000005A0,false,Rx,0,8,7F,00,00,C0,5D,00,00,30,
7517906,00000288,false,Rx,0,8,8F,52,00,00,00,56,00,00,
7518098,00000380,false,Rx,0,8,00,4E,FA,49,01,00,00,00,
7518349,000001A0,false,Rx,0,8,00,40,00,00,FE,FE,00,15,
7521865,00000480,false,Rx,0,8,A4,20,00,00,19,06,00,9B,
7524009,00000050,false,Rx,0,4,00,01,E0,E1,00,00,00,00,
7525397,000001A0,false,Rx,0,8,00,40,00,00,FE,FE,00,16,
7525653,000004A0,false,Rx,0,8,00,00,00,00,00,00,00,00,
7525899,000005A0,false,Rx,0,8,7F,00,00,6E,6B,00,00,30,
7527819,00000280,false,Rx,0,8,00,72,00,00,72,FA,2C,00,
7528073,00000488,false,Rx,0,8,96,00,00,80,A6,00,00,B0,
7531887,00000588,false,Rx,0,8,E9,11,80,00,63,00,00,00,
7532367,000001A0,false,Rx,0,8,00,40,00,00,FE,FE,00,17,
7533839,00000320,false,Rx,0,8,00,06,2D,01,00,00,00,00,
7537890,00000288,false,Rx,0,8,DE,52,00,00,00,56,00,00,
7538087,00000380,false,Rx,0,8,00,4E,FA,49,01,00,00,00,
7539406,000001A0,false,Rx,0,8,00,40,00,00,FE,FE,00,18,
7539623,000004A0,false,Rx,0,8,00,00,00,00,00,00,00,00,
7539869,000005A0,false,Rx,0,8,7F,00,00,1C,79,00,00,30,
7541861,00000480,false,Rx,0,8,ED,20,00,00,19,06,00,D2,
7544009,00000050,false,Rx,0,4,00,01,F0,F1,00,00,00,00,
7546380,000001A0,false,Rx,0,8,00,40,00,00,FE,FE,00,19,
7547848,00000280,false,Rx,0,8,00,72,00,00,72,FA,2C,00,
7548103,00000488,false,Rx,0,8,E6,00,00,80,A6,00,00,C0,
7551845,00000588,false,Rx,0,8,E9,11,80,00,63,00,00,00,
7553387,000001A0,false,Rx,0,8,00,40,00,00,FE,FE,00,1A,
7553646,000004A0,false,Rx,0,8,00,00,00,00,00,00,00,00,
7553892,000005A0,false,Rx,0,8,7F,00,00,CA,86,00,00,30,
7557954,00000288,false,Rx,0,8,DE,52,00,00,00,56,00,00,
7558149,00000380,false,Rx,0,8,00,4E,FA,49,01,00,00,00,
7558552,00000320,false,Rx,0,8,00,06,2D,01,00,00,00,00,
7560389,000001A0,false,Rx,0,8,00,40,00,00,FE,FE,00,1B,
7561859,00000480,false,Rx,0,8,ED,20,00,00,19,06,00,D2,
7564008,00000050,false,Rx,0,4,00,01,00,01,00,00,00,00,
7567361,000001A0,false,Rx,0,8,00,40,00,00,FE,FE,00,1C,
7567616,000004A0,false,Rx,0,8,00,00,00,00,00,00,00,00,
7567861,00000280,false,Rx,0,8,00,72,00,00,72,FA,2C,00,
7568115,00000488,false,Rx,0,8,F6,00,00,80,A6,00,00,D0,
7568362,000005A0,false,Rx,0,8,7F,00,00,78,94,00,00,30,
7571861,00000588,false,Rx,0,8,E9,11,80,00,63,00,00,00,
7576026,000001A0,false,Rx,0,8,00,40,00,00,FE,FE,00,1D,
7577910,00000288,false,Rx,0,8,DE,52,00,00,00,56,00,00,
7578116,00000380,false,Rx,0,8,00,4E,FA,49,01,00,00,00,
7581337,000001A0,false,Rx,0,8,00,40,00,00,FE,FE,00,1E,
7581602,000004A0,false,Rx,0,8,00,00,00,00,00,00,00,00,
7581848,000005A0,false,Rx,0,8,7F,00,00,26,A2,00,00,30,
7582097,00000480,false,Rx,0,8,ED,20,00,00,19,06,00,D2,
7582881,00000570,false,Rx,0,4,07,00,DA,00,00,00,00,00,
7584042,00000050,false,Rx,0,4,00,01,10,11,00,00,00,00,
7584368,00000320,false,Rx,0,8,00,06,2D,01,00,00,00,00,
7587880,00000280,false,Rx,0,8,00,72,00,00,72,FA,2C,00,
7588057,00000488,false,Rx,0,8,C6,00,00,80,A6,00,00,E0,
7588384,000001A0,false,Rx,0,8,00,40,00,00,FE,FE,00,1F,
7591891,00000588,false,Rx,0,8,E9,12,80,00,63,00,00,00,
7595850,000001A0,false,Rx,0,8,00,40,00,00,FE,FE,00,10,
7595879,000004A0,false,Rx,0,8,00,00,00,00,00,00,00,00,
7595895,000005A0,false,Rx,0,8,7F,00,00,D4,AF,00,00,30,
7597860,00000288,false,Rx,0,8,DE,52,00,00,00,56,00,00,
7598115,00000380,false,Rx,0,8,00,4E,FA,49,01,00,00,00,
7601855,00000480,false,Rx,0,8,ED,20,00,00,19,06,00,D2,
7602335,000001A0,false,Rx,0,8,00,40,00,00,FE,FE,00,11,
7604033,00000050,false,Rx,0,4,00,01,20,21,00,00,00,00,
7607847,00000280,false,Rx,0,8,00,72,00,00,72,FA,2C,00,
7608102,00000488,false,Rx,0,8,D6,00,00,80,A6,00,00,F0,
7609040,00000320,false,Rx,0,8,00,06,2D,01,00,00,00,00,
7609366,000005D8,false,Rx,0,8,15,04,00,03,01,00,00,00,
7609620,000001A0,false,Rx,0,8,00,40,00,00,FE,FE,00,12,
7609866,000004A0,false,Rx,0,8,00,00,00,00,00,00,00,00,
7610116,000005A0,false,Rx,0,8,7F,00,00,82,BD,00,00,30,
7610292,000005D0,false,Rx,0,6,80,47,51,30,24,41,00,00,
7611833,00000588,false,Rx,0,8,E9,12,80,00,63,00,00,00,
7616414,000001A0,false,Rx,0,8,00,40,00,00,FE,FE,00,13,
7617874,00000288,false,Rx,0,8,0C,52,00,00,00,56,00,00,
7618080,00000380,false,Rx,0,8,00,4E,FA,49,01,00,00,00,
7621897,00000480,false,Rx,0,8,19,20,00,00,19,06,00,26,
7623437,000001A0,false,Rx,0,8,00,40,00,00,FE,FE,00,14,
7623621,000004A0,false,Rx,0,8,00,00,00,00,00,00,00,00,
7623867,000005A0,false,Rx,0,8,7F,00,00,30,CB,00,00,30,
7624115,00000050,false,Rx,0,4,00,01,30,31,00,00,00,00,
7627855,00000280,false,Rx,0,8,00,72,00,00,72,FA,2C,00,
7628110,00000488,false,Rx,0,8,26,00,00,80,A6,00,00,00,
7630483,000001A0,false,Rx,0,8,00,40,00,00,FE,FE,00,15,
7631879,00000588,false,Rx,0,8,E9,12,80,00,63,00,00,00,
7633723,00000320,false,Rx,0,8,00,06,2D,01,00,00,00,00,
7637413,000001A0,false,Rx,0,8,00,40,00,00,FE,FE,00,16,
7637605,000004A0,false,Rx,0,8,00,00,00,00,00,00,00,00,
7637852,00000288,false,Rx,0,8,0C,52,00,00,00,56,00,00,
7638106,00000380,false,Rx,0,8,00,4E,FA,49,01,00,00,00,
7638357,000005A0,false,Rx,0,8,7F,00,00,DE,D8,00,00,30,
7641868,00000480,false,Rx,0,8,19,20,00,00,19,06,00,26,
7644090,00000050,false,Rx,0,4,00,01,40,41,00,00,00,00,
7644416,000001A0,false,Rx,0,8,00,40,00,00,FE,FE,00,17,
7647853,00000280,false,Rx,0,8,00,72,00,00,72,FA,2C,00,
7648108,00000488,false,Rx,0,8,36,00,00,80,A6,00,00,10,
7651465,000001A0,false,Rx,0,8,00,40,00,00,FE,FE,00,18,
7651724,000004A0,false,Rx,0,8,00,00,00,00,00,00,00,00,
7651969,00000588,false,Rx,0,8,E9,12,80,00,63,00,00,00,
7652220,000005A0,false,Rx,0,8,7F,00,00,8C,E6,00,00,30,
7657876,00000288,false,Rx,0,8,0C,52,00,00,00,56,00,00,
7658078,00000380,false,Rx,0,8,00,4E,FA,49,01,00,00,00,
7658330,000001A0,false,Rx,0,8,00,40,00,00,FE,FE,00,19,
7658734,00000320,false,Rx,0,8,00,06,2D,01,00,00,00,00,
7659057,00000420,false,Rx,0,8,06,78,78,43,00,00,FF,00,
7661887,00000480,false,Rx,0,8,19,20,00,00,19,06,00,26,
7664113,00000050,false,Rx,0,4,00,01,50,51,00,00,00,00,
7665509,000001A0,false,Rx,0,8,00,40,00,00,FE,FE,00,1A,
7665756,000004A0,false,Rx,0,8,00,00,00,00,00,00,00,00,
7666001,000005A0,false,Rx,0,8,7F,00,00,3A,F4,00,00,30,
7667845,00000280,false,Rx,0,8,00,72,00,00,72,FA,2C,00,
7668095,00000488,false,Rx,0,8,06,00,00,80,A6,00,00,20,
7671900,00000588,false,Rx,0,8,E9,12,80,00,63,00,00,00,
7672475,000001A0,false,Rx,0,8,00,40,00,00,FE,FE,00,1B,
7677891,00000288,false,Rx,0,8,0C,52,00,00,00,56,00,00,
7678080,00000380,false,Rx,0,8,00,4E,FA,49,01,00,00,00,
7679410,000001A0,false,Rx,0,8,00,40,00,00,FE,FE,00,1C,
7679675,000004A0,false,Rx,0,8,00,00,00,00,00,00,00,00,
7679921,000005A0,false,Rx,0,8,7F,00,00,E8,01,00,00,30,
7681838,00000480,false,Rx,0,8,19,20,00,00,19,06,00,26,
7682776,00000570,false,Rx,0,4,07,00,DA,00,00,00,00,00,
7684163,00000320,false,Rx,0,8,00,06,2D,01,00,00,00,00,
7684338,00000050,false,Rx,0,4,00,01,60,61,00,00,00,00,
7686482,000001A0,false,Rx,0,8,00,40,00,00,FE,FE,00,1D,
7687877,00000280,false,Rx,0,8,00,72,00,00,72,FA,2C,00,
7688058,00000488,false,Rx,0,8,16,00,00,80,A6,00,00,30,
7691872,00000588,false,Rx,0,8,E9,12,80,00,63,00,00,00,
7693496,000001A0,false,Rx,0,8,00,40,00,00,FE,FE,00,1E,
7693747,000004A0,false,Rx,0,8,00,00,00,00,00,00,00,00,
7693998,000005A0,false,Rx,0,8,7F,00,00,96,0F,00,00,30,
7697948,00000288,false,Rx,0,8,75,52,00,00,00,56,00,00,
7698081,00000380,false,Rx,0,8,00,4E,FA,49,01,00,00,00,
7700448,000001A0,false,Rx,0,8,00,40,00,00,FE,FE,00,1F,
7701844,00000480,false,Rx,0,8,53,20,00,00,19,06,00,6C,
7704144,00000050,false,Rx,0,4,00,01,70,71,00,00,00,00,
7707426,000001A0,false,Rx,0,8,00,40,00,00,FE,FE,00,10,
7707684,000004A0,false,Rx,0,8,00,00,00,00,00,00,00,00,
7707930,00000280,false,Rx,0,8,00,72,00,00,72,FA,2C,00,
7708181,00000488,false,Rx,0,8,66,00,00,80,A6,00,00,40,
7708431,000005A0,false,Rx,0,8,7F,00,00,44,1D,00,00,30,
7709063,00000320,false,Rx,0,8,00,06,2D,01,00,00,00,00,
7709387,000005D8,false,Rx,0,8,15,04,00,03,01,00,00,00,
7709644,000005D0,false,Rx,0,6,80,47,51,30,24,41,00,00,
7709965,00000520,false,Rx,0,8,02,04,01,2F,80,75,34,04,
7711882,00000588,false,Rx,0,8,E9,12,80,00,63,00,00,00,
7716102,000001A0,false,Rx,0,8,00,40,00,00,FE,FE,00,11,
7717838,00000288,false,Rx,0,8,75,53,00,00,00,56,00,00,
7718089,00000380,false,Rx,0,8,00,4E,FA,49,01,00,00,00,
7721448,000001A0,false,Rx,0,8,00,40,00,00,FE,FE,00,12,
7721703,000004A0,false,Rx,0,8,00,00,00,00,00,00,00,00,
7721948,00000480,false,Rx,0,8,53,20,00,00,19,06,00,6C,
7722202,000005A0,false,Rx,0,8,7F,00,00,F2,2A,00,00,30,
7724122,00000050,false,Rx,0,4,00,01,80,81,00,00,00,00,
7727865,00000280,false,Rx,0,8,00,72,00,00,72,FA,2B,00,
7728115,00000488,false,Rx,0,8,76,00,00,80,A6,00,00,50,
7728441,000001A0,false,Rx,0,8,00,40,00,00,FE,FE,00,13,
7731882,00000588,false,Rx,0,8,E9,12,80,00,63,00,00,00,
7733655,00000320,false,Rx,0,8,00,06,2D,01,00,00,00,00,
7736101,000001A0,false,Rx,0,8,00,40,00,00,FE,FE,00,14,
7736123,000004A0,false,Rx,0,8,00,00,00,00,00,00,00,00,
7736139,000005A0,false,Rx,0,8,7F,00,00,A0,38,00,00,30,
7737846,00000288,false,Rx,0,8,75,53,00,00,00,56,00,00,
7738102,00000380,false,Rx,0,8,00,4E,FA,49,01,00,00,00,
7741842,00000480,false,Rx,0,8,53,20,00,00,19,06,00,6C,
7742479,000001A0,false,Rx,0,8,00,40,00,00,FE,FE,00,15,
7744210,00000050,false,Rx,0,4,00,01,90,91,00,00,00,00,
7747822,00000280,false,Rx,0,8,00,72,00,00,72,FA,2B,00,
7748078,00000488,false,Rx,0,8,46,00,00,80,A6,00,00,60,
7749547,000001A0,false,Rx,0,8,00,40,00,00,FE,FE,00,16,
7749798,000004A0,false,Rx,0,8,00,00,00,00,00,00,00,00,
7750047,000005A0,false,Rx,0,8,7F,00,00,4E,46,00,00,30,
7751891,00000588,false,Rx,0,8,E9,12,80,00,63,00,00,00,
7756505,000001A0,false,Rx,0,8,00,40,00,00,FE,FE,00,17,
7757831,00000288,false,Rx,0,8,75,53,00,00,00,56,00,00,
7758084,00000380,false,Rx,0,8,00,4E,FA,49,01,00,00,00,
7758568,00000320,false,Rx,0,8,00,06,2D,01,00,00,00,00,
7761845,00000480,false,Rx,0,8,53,20,00,00,19,06,00,6C,
7763542,000001A0,false,Rx,0,8,00,40,00,00,FE,FE,00,18,
7763794,000004A0,false,Rx,0,8,00,00,00,00,00,00,00,00,
